(1680565948.734753) can1 18F00A01#0000000000000000
(1680565948.738161) can1 1028FF00#00005045000088E8
(1680565948.738162) can1 1029FF00#000087000000F501
(1680565948.739315) can1 102AFF00#00006101605E7900
(1680565948.739317) can1 102BFF00#005045454400C800
(1680565948.749186) can1 1810A7B1#8813881388138813
(1680565948.750474) can1 1811A7B1#8813861388138713
(1680565948.750475) can1 1801A7B1#0000881310270800
(1680565948.751705) can1 1812A7B1#8813881389138813
(1680565948.751706) can1 1802A7B1#640450C39A8F004F
(1680565948.753107) can1 1813A7B1#8913881388138813
(1680565948.753108) can1 1814A7B1#8813871388138813
(1680565948.755237) can1 1815A7B1#8913881388138813
(1680565948.756575) can1 1816A7B1#88138A1388138813
(1680565948.756577) can1 1817A7B1#8B1388138813FFFF
(1680565948.760601) can1 18A03D72#3200320000000266
(1680565948.767038) can1 14006528#803E00E1F5050101
(1680565948.767039) can1 14036528#0000000000000000
(1680565948.768218) can1 1820A7C1#0000000000004928
(1680565948.768220) can1 1028FF00#00005045000088E8
(1680565948.769376) can1 1029FF00#000087000000F501
(1680565948.769377) can1 102AFF00#00006101605E7A00
(1680565948.770498) can1 102BFF00#005045454400C800
(1680565948.770499) can1 14046528#000000003F000000
(1680565948.771687) can1 1821A7C1#00A7000000000000
(1680565948.771688) can1 182FA7C1#7E11C13800000000
(1680565948.772844) can1 1028FFF0#0000000000000000
(1680565948.772845) can1 19BBB701#0000000000000000
(1680565948.774063) can1 0C01C1A7#0500A40000000000
(1680565948.774064) can1 0CFFA63D#00000000000000A4
(1680565948.775273) can1 00000301#0132000000000437
(1680565948.775274) can1 0C30723D#0132000000000437
(1680565948.777532) can1 18FAC603#0000000000000000
(1680565948.777533) can1 18FA9020#01AF000000000000
(1680565948.778739) can1 18FAC527#01FA000000000000
(1680565948.778740) can1 161088A2#1F00170019003900
(1680565948.779986) can1 161088A1#01000000005A6400
(1680565948.779987) can1 161088A4#0000000576000200
(1680565948.781116) can1 161088A5#0000000000000000
(1680565948.782610) can1 161088A6#0000000000000005
(1680565948.782611) can1 161088A7#0000000000000000
(1680565948.783792) can1 161088AE#0000000000000000
(1680565948.783793) can1 18F00105#40E8030000000000
(1680565948.784984) can1 0CFF1C90#0A430100003C0213
(1680565948.784985) can1 161088A8#010000000000001D
(1680565948.786142) can1 161088A9#3200000000000000
(1680565948.787480) can1 161088AA#0000320000000000
(1680565948.787481) can1 161088AB#0000000000000000
(1680565948.788697) can1 1026D3D2#0000000000000000
(1680565948.788698) can1 1610AAAA#0000000000000000
(1680565948.789905) can1 1610AAAB#0000000000000000
(1680565948.798518) can1 1028FF00#00005045000088E8
(1680565948.798520) can1 1029FF00#000086000000F501
(1680565948.799697) can1 102AFF00#00006101605E7B00
(1680565948.799699) can1 102BFF00#005045454400C800
(1680565948.824492) can1 18F00501#0804400000000000
(1680565948.828647) can1 1028FF00#00005045000088E8
(1680565948.828649) can1 1029FF00#000084000000F401
(1680565948.829802) can1 102AFF00#00006101605E7C00
(1680565948.829803) can1 102BFF00#005045454400C800
(1680565948.834507) can1 18F00A01#0000000000000000
(1680565948.858828) can1 1028FF00#00005045000088E8
(1680565948.858830) can1 1029FF00#000082000000F401
(1680565948.859996) can1 102AFF00#00006101605E7D00
(1680565948.859997) can1 102BFF00#005045454400C800
(1680565948.861126) can1 18A03D72#3200320000000367
(1680565948.866998) can1 14006528#803E00E1F5050101
(1680565948.867000) can1 182FA7C1#7E11C13800000000
(1680565948.868463) can1 14036528#0000000000000000
(1680565948.868465) can1 1820A7C1#0000000000004928
(1680565948.869619) can1 14046528#000000003F000000
(1680565948.869621) can1 1821A7C1#00A8000000000000
(1680565948.882334) can1 1028FFF0#0000000000000000
(1680565948.884804) can1 0CFF1C90#0A43020000B40213
(1680565948.888971) can1 1028FF00#00005045000088E8
(1680565948.888972) can1 1029FF00#000081000000F401
(1680565948.890128) can1 102AFF00#00006101605E7E00
(1680565948.890129) can1 102BFF00#005045454400C800
(1680565948.898155) can1 1801A7B1#0000881310270800
(1680565948.899544) can1 1802A7B1#640450C39A8F0050
(1680565948.899544) can1 1810A7B1#8813881388138813
(1680565948.900672) can1 1811A7B1#8813861388138713
(1680565948.900674) can1 1812A7B1#8813881389138813
(1680565948.902178) can1 1813A7B1#8913881388138813
(1680565948.903594) can1 1814A7B1#8813871389138813
(1680565948.904851) can1 1815A7B1#8913881388138913
(1680565948.904853) can1 1816A7B1#88138A1388138813
(1680565948.906179) can1 1817A7B1#8B1388138813FFFF
(1680565948.919129) can1 1028FF00#00005045000088E8
(1680565948.919131) can1 1029FF00#00007F000000F401
(1680565948.920308) can1 102AFF00#00006101605E7F00
(1680565948.920310) can1 102BFF00#005045454400C800
(1680565948.924516) can1 18F00501#0804400000000000
(1680565948.934520) can1 18F00A01#0000000000000000
(1680565948.949256) can1 1028FF00#00005045000088E8
(1680565948.949258) can1 1029FF00#00007D000000F401
(1680565948.950413) can1 102AFF00#00006101605E8000
(1680565948.950414) can1 102BFF00#005045454400C800
(1680565948.960646) can1 18A03D72#3200320000000468
(1680565948.966777) can1 14006528#803E00E1F5050101
(1680565948.966778) can1 14036528#0200000000000000
(1680565948.967996) can1 1820A7C1#0000000000004928
(1680565948.967997) can1 14046528#000000003F000000
(1680565948.969127) can1 1821A7C1#00A9000000000000
(1680565948.969128) can1 182FA7C1#7E11C13800000000
(1680565948.979440) can1 1028FF00#00005045000088E8
(1680565948.979441) can1 1029FF00#00007C000000F401
(1680565948.980594) can1 102AFF00#00006101605E8100
(1680565948.980596) can1 102BFF00#005045454400C800
(1680565948.984803) can1 0CFF1C90#0AC3030000CF0213
(1680565948.992207) can1 1028FFF0#0000000000000000
(1680565948.992207) can1 19BBB701#0000000000000000
(1680565948.993389) can1 0C01C1A7#0500A50000000000
(1680565948.993390) can1 0CFFA63D#00000000000000A5
(1680565948.994597) can1 00000301#0132000000000538
(1680565948.994597) can1 0C30723D#0132000000000538
(1680565948.996972) can1 18FAC603#0000000000000000
(1680565948.996973) can1 18FA9020#01AF000000000000
(1680565948.998102) can1 18FAC527#01FA000000000000
(1680565948.998103) can1 161088A2#2000140019003D00
(1680565949.009546) can1 1028FF00#00005045000088E8
(1680565949.009547) can1 1029FF00#00007B000000F401
(1680565949.010702) can1 102AFF00#00006101605E8200
(1680565949.010702) can1 102BFF00#005045454400C800
(1680565949.024468) can1 18F00501#0804400000000000
(1680565949.034494) can1 18F00A01#0000000000000000
(1680565949.039728) can1 1028FF00#00005045000088E8
(1680565949.039729) can1 1029FF00#000079000000F401
(1680565949.040883) can1 102AFF00#00006101605E8300
(1680565949.040883) can1 102BFF00#005045454400C800
(1680565949.049468) can1 1810A7B1#8813881388138813
(1680565949.049469) can1 1801A7B1#0000881310270800
(1680565949.050702) can1 1811A7B1#8813861388138713
(1680565949.050702) can1 1802A7B1#640450C39A8F0051
(1680565949.052103) can1 1812A7B1#8813881389138813
(1680565949.052104) can1 1813A7B1#8913881388138813
(1680565949.053493) can1 1814A7B1#8813871389138813
(1680565949.054779) can1 1815A7B1#8913881388138913
(1680565949.054780) can1 1816A7B1#88138A1388138813
(1680565949.056207) can1 1817A7B1#8B1388138813FFFF
(1680565949.060623) can1 18A03D72#3200320000000569
(1680565949.060624) can1 161088A1#01000000005A6400
(1680565949.062492) can1 161088A4#0000000576000200
(1680565949.062493) can1 161088A5#0000000000000000
(1680565949.063675) can1 161088A6#0000000000000005
(1680565949.063676) can1 161088A7#0200000000000000
(1680565949.064883) can1 161088AE#0000000000000000
(1680565949.064883) can1 18F00105#40E8030000000000
(1680565949.066623) can1 14006528#803E00E1F5050101
(1680565949.066624) can1 161088A8#010000000000001D
(1680565949.067805) can1 14036528#0200000000000000
(1680565949.067805) can1 161088A9#3200000000000000
(1680565949.068972) can1 14046528#000000003F000000
(1680565949.068976) can1 161088AA#0000320000000000
(1680565949.070103) can1 1028FF00#00005045000088E8
(1680565949.070104) can1 1029FF00#000079000000F401
(1680565949.071272) can1 102AFF00#00006101605E8400
(1680565949.071272) can1 102BFF00#005045454400C800
(1680565949.072415) can1 161088AB#0000000000000000
(1680565949.072416) can1 1820A7C1#0000000000004928
(1680565949.073571) can1 1026D3D2#0000000000000000
(1680565949.073572) can1 1821A7C1#00AA000000000000
(1680565949.074751) can1 1610AAAA#0000000000000000
(1680565949.074752) can1 182FA7C1#7E11C13800000000
(1680565949.075907) can1 1610AAAB#0000000000000000
(1680565949.075909) can1 161088A3#F000F20015010901
(1680565949.077308) can1 161088AC#0000000000000901
(1680565949.077309) can1 161088AD#0000E80300000000
(1680565949.078499) can1 1000E400#1F02000000000000
(1680565949.078500) can1 161088AF#0000000000000000
(1680565949.084804) can1 0CFF1C90#0A42040000A40213
(1680565949.100053) can1 1028FF00#00005045000088E8
(1680565949.100055) can1 1029FF00#000078000000F401
(1680565949.101205) can1 102AFF00#00006101605E8500
(1680565949.101207) can1 102BFF00#005045454400C800
(1680565949.124518) can1 18F00501#0804400000000000
(1680565949.130206) can1 1028FF00#00005045000088E8
(1680565949.130208) can1 1029FF00#000076000000F401
(1680565949.131361) can1 102AFF00#00006101605E8600
(1680565949.131363) can1 102BFF00#005045454400C800
(1680565949.134507) can1 18F00A01#0000000000000000
(1680565949.148128) can1 18FEA3B2#047C00CF0B00003E
(1680565949.152518) can1 18F8A7B1#0001010201210000
(1680565949.160361) can1 1028FF00#00005045000088E8
(1680565949.160362) can1 1029FF00#000074000000F401
(1680565949.161517) can1 102AFF00#00006101605E8700
(1680565949.161519) can1 102BFF00#005045454400C800
(1680565949.162674) can1 1028FFF0#0000000000000000
(1680565949.162676) can1 18A03D72#320032000000066A
(1680565949.166853) can1 14006528#803E00E1F5050101
(1680565949.166855) can1 14036528#0200000000000000
(1680565949.168300) can1 1820A7C1#0000000000004928
(1680565949.168302) can1 14046528#000000003F000000
(1680565949.169492) can1 1821A7C1#00AB000000000000
(1680565949.169494) can1 14016528#A802000100000000
(1680565949.170622) can1 182FA7C1#7E11C13800000000
(1680565949.170623) can1 14026528#0100010001000000
(1680565949.184804) can1 0CFF1C90#0AC2050000DF0213
(1680565949.190499) can1 1028FF00#00005045000088E8
(1680565949.190501) can1 1029FF00#000072000000F401
(1680565949.191673) can1 102AFF00#00006101605E8800
(1680565949.191675) can1 102BFF00#005045454400C800
(1680565949.198598) can1 1801A7B1#0000881310270100
(1680565949.198599) can1 1802A7B1#E10350C39A8F0052
(1680565949.199728) can1 1810A7B1#8813881388138813
(1680565949.199729) can1 1811A7B1#8813851388138713
(1680565949.201156) can1 1812A7B1#8813881389138813
(1680565949.202572) can1 1813A7B1#8913881388138813
(1680565949.202572) can1 1814A7B1#8813871389138813
(1680565949.205286) can1 1815A7B1#8813881388138913
(1680565949.206574) can1 1816A7B1#88138A1388138813
(1680565949.206575) can1 1817A7B1#8B1388138813FFFF
(1680565949.220650) can1 1028FF00#00005045000088E8
(1680565949.220651) can1 1029FF00#000071000000F401
(1680565949.221831) can1 102AFF00#00006101605E8900
(1680565949.221832) can1 102BFF00#005045454400C800
(1680565949.224510) can1 18F00501#0804400000000000
(1680565949.234507) can1 18F00A01#0000000000000000
(1680565949.250825) can1 1028FF00#00005045000088E8
(1680565949.250826) can1 1029FF00#000070000000F401
(1680565949.251999) can1 102AFF00#00006101605E8A00
(1680565949.252001) can1 102BFF00#005045454400C800
(1680565949.260650) can1 18A03D72#320032000000076B
(1680565949.266388) can1 14006528#803E00E1F5050101
(1680565949.266390) can1 14036528#0200000000000000
(1680565949.267622) can1 14046528#000000003F000000
(1680565949.267624) can1 1820A7C1#0000000000004928
(1680565949.268804) can1 1821A7C1#00AC000000000000
(1680565949.268806) can1 182FA7C1#7E11C13800000000
(1680565949.271415) can1 1028FFF0#0000000000000000
(1680565949.271416) can1 19BBB701#0000000000000000
(1680565949.272622) can1 0C01C1A7#0500A60000000000
(1680565949.272623) can1 0CFFA63D#00000000000000A6
(1680565949.273803) can1 00000301#0132000000000639
(1680565949.273805) can1 0C30723D#0132000000000639
(1680565949.276128) can1 18FAC603#0000000000000000
(1680565949.276130) can1 18FA9020#01AF000000000000
(1680565949.277337) can1 18FAC527#01FA000000000000
(1680565949.277338) can1 161088A2#2000140019003D00
(1680565949.278488) can1 161088A1#01000000005A6400
(1680565949.278489) can1 161088A4#0000000576000200
(1680565949.279727) can1 161088A5#0000000000000000
(1680565949.280998) can1 1028FF00#00005045000088E8
(1680565949.280999) can1 1029FF00#00006F000000F401
(1680565949.282129) can1 102AFF00#00006101605E8B00
(1680565949.282130) can1 102BFF00#005045454400C800
(1680565949.283285) can1 161088A6#0000000000000005
(1680565949.283286) can1 161088A7#0200000000000000
(1680565949.284467) can1 161088AE#0000000000000000
(1680565949.284468) can1 0CFF1C90#0AC2060000570213
(1680565949.286128) can1 18F00105#40E8030000000000
(1680565949.286130) can1 161088A8#010000000000001D
(1680565949.287311) can1 161088A9#3200000000000000
(1680565949.287312) can1 161088AA#0000320000000000
(1680565949.288519) can1 161088AB#0000000000000000
(1680565949.288520) can1 1026D3D2#0000000000000000
(1680565949.289727) can1 1610AAAA#0000000000000000
(1680565949.291155) can1 1610AAAB#0000000000000000
(1680565949.311106) can1 1028FF00#00005045000088E8
(1680565949.311106) can1 1029FF00#00006D000000F401
(1680565949.312285) can1 102AFF00#00006101605E8C00
(1680565949.312287) can1 102BFF00#005045454400C800
(1680565949.324519) can1 18F00501#0804400000000000
(1680565949.334510) can1 18F00A01#0000000000000000
(1680565949.341285) can1 1028FF00#00005045000088E8
(1680565949.341286) can1 1029FF00#00006B000000F501
(1680565949.342445) can1 102AFF00#00006101605E8D00
(1680565949.342446) can1 102BFF00#005045454400C800
(1680565949.349597) can1 1810A7B1#8813881388138813
(1680565949.349598) can1 1811A7B1#8813851388138713
(1680565949.351520) can1 1801A7B1#0000881310270800
(1680565949.351521) can1 1812A7B1#8813881389138813
(1680565949.352623) can1 1802A7B1#640450C39A8F0053
(1680565949.352625) can1 1813A7B1#8913881388138813
(1680565949.353701) can1 1814A7B1#8813871388138813
(1680565949.354854) can1 1815A7B1#8813881388138813
(1680565949.354856) can1 1816A7B1#88138A1388138813
(1680565949.356181) can1 1817A7B1#8B1388138813FFFF
(1680565949.360675) can1 18A03D72#320032000000086C
(1680565949.366389) can1 14006528#803E00E1F5050101
(1680565949.366391) can1 14036528#0000000000000000
(1680565949.367909) can1 1820A7C1#0000000000004928
(1680565949.367910) can1 14046528#000000003F000000
(1680565949.369077) can1 1821A7C1#00AD000000000000
(1680565949.369079) can1 182FA7C1#7E11C13800000000
(1680565949.371441) can1 1028FF00#00005045000088E8
(1680565949.371443) can1 1029FF00#00006A000000F501
(1680565949.372597) can1 102AFF00#00006101605E8E00
(1680565949.372598) can1 102BFF00#005045454400C800
(1680565949.381000) can1 1028FFF0#0000000000000000
(1680565949.384808) can1 0CFF1C90#0A420700002C0213
(1680565949.401600) can1 1028FF00#00005045000088E8
(1680565949.401600) can1 1029FF00#000069000000F401
(1680565949.402780) can1 102AFF00#00006101605E8F00
(1680565949.402781) can1 102BFF00#005045454400C800
(1680565949.424522) can1 18F00501#0804400000000000
(1680565949.431780) can1 1028FF00#00005045000088E8
(1680565949.431781) can1 1029FF00#000067000000F401
(1680565949.432999) can1 102AFF00#00006101605E9000
(1680565949.433001) can1 102BFF00#005045454400C800
(1680565949.434503) can1 18F00A01#0000000000000000
(1680565949.460676) can1 18A03D72#320032000000096D
(1680565949.461909) can1 1028FF00#00005045000088E8
(1680565949.461911) can1 1029FF00#000066000000F401
(1680565949.463052) can1 102AFF00#00006101605E9100
(1680565949.463053) can1 102BFF00#005045454400C800
(1680565949.466104) can1 14006528#803E00E1F5050101
(1680565949.466105) can1 14036528#0200000000000000
(1680565949.467598) can1 14046528#000000003F000000
(1680565949.467599) can1 1820A7C1#0000000000004928
(1680565949.468752) can1 1821A7C1#00AE000000000000
(1680565949.468754) can1 182FA7C1#7E11C13800000000
(1680565949.484806) can1 0CFF1C90#0A40080000840213
(1680565949.490806) can1 1028FFF0#0000000000000000
(1680565949.490808) can1 19BBB701#0000000000000000
(1680565949.491999) can1 0C01C1A7#0500A70000000000
(1680565949.492001) can1 1028FF00#00005045000088E8
(1680565949.493156) can1 0CFFA63D#00000000000000A7
(1680565949.493157) can1 1029FF00#000065000000F401
(1680565949.494312) can1 00000301#013200000000073A
(1680565949.494313) can1 102AFF00#00006101605E9200
(1680565949.495468) can1 102BFF00#005045454400C800
(1680565949.495469) can1 0C30723D#013200000000073A
(1680565949.496624) can1 18FAC603#0000000000000000
(1680565949.496626) can1 18FA9020#01AF000000000000
(1680565949.498504) can1 1801A7B1#0000881310270800
(1680565949.498506) can1 1802A7B1#640450C39A8F0054
(1680565949.499702) can1 1810A7B1#8813881388138813
(1680565949.499703) can1 1811A7B1#8813861388138713
(1680565949.501234) can1 1812A7B1#8813881389138813
(1680565949.502500) can1 1813A7B1#8913881388138813
(1680565949.502502) can1 1814A7B1#8813881389138813
(1680565949.505442) can1 1815A7B1#8913881388138913
(1680565949.506503) can1 1816A7B1#88138A1388138813
(1680565949.506504) can1 1817A7B1#8B1388138813FFFF
(1680565949.522208) can1 1028FF00#00005045000088E8
(1680565949.522209) can1 1029FF00#000063000000F401
(1680565949.523365) can1 102AFF00#00006101605E9300
(1680565949.523366) can1 102BFF00#005045454400C800
(1680565949.524521) can1 18F00501#0804400000000000
(1680565949.534511) can1 18F00A01#0000000000000000
(1680565949.552393) can1 1028FF00#00005045000088E8
(1680565949.552395) can1 1029FF00#000063000000F401
(1680565949.553547) can1 102AFF00#00006101605E9400
(1680565949.553549) can1 102BFF00#005045454400C800
(1680565949.559784) can1 18FAC527#01FA000000000000
(1680565949.559785) can1 18A03D72#3200320000000A6E
(1680565949.561313) can1 161088A2#2000140019003D00
(1680565949.561314) can1 161088A1#01000000005A6400
(1680565949.562486) can1 161088A4#0000000576000200
(1680565949.562487) can1 161088A5#0000000000000000
(1680565949.563729) can1 161088A6#0000000000000005
(1680565949.565287) can1 161088A7#0200000000000000
(1680565949.565288) can1 161088AE#0000000000000000
(1680565949.566463) can1 14006528#803E00E1F5050101
(1680565949.566466) can1 18F00105#40E8030000000000
(1680565949.567625) can1 14036528#0000000000000000
(1680565949.567627) can1 161088A8#010000000000001D
(1680565949.568781) can1 14046528#000000003F000000
(1680565949.568782) can1 161088A9#3200000000000000
(1680565949.570000) can1 1820A7C1#0000000000004928
(1680565949.570001) can1 161088AA#0000320000000000
(1680565949.571105) can1 1821A7C1#00AF000000000000
(1680565949.571106) can1 161088AB#0000000000000000
(1680565949.572235) can1 182FA7C1#7E11C13800000000
(1680565949.572236) can1 1026D3D2#0000000000000000
(1680565949.573417) can1 1610AAAA#0000000000000000
(1680565949.573418) can1 1610AAAB#0000000000000000
(1680565949.575235) can1 161088A3#F000F20014010901
(1680565949.575237) can1 161088AC#0000000000000901
(1680565949.576417) can1 161088AD#0000E80300000000
(1680565949.576418) can1 1000E400#1F02000000000000
(1680565949.577650) can1 161088AF#0000000000000000
(1680565949.582509) can1 1028FF00#00005045000088E8
(1680565949.582510) can1 1029FF00#000060000000F401
(1680565949.583703) can1 102AFF00#00006101605E9500
(1680565949.583705) can1 102BFF00#005045454400C800
(1680565949.584833) can1 0CFF1C90#0AC0090000FF0213
(1680565949.612651) can1 1028FF00#00005045000088E8
(1680565949.612653) can1 1029FF00#00005F000000F401
(1680565949.613833) can1 102AFF00#00006101605E9600
(1680565949.613835) can1 102BFF00#005045454400C800
(1680565949.624521) can1 18F00501#0804400000000000
(1680565949.634524) can1 18F00A01#0000000000000000
(1680565949.642834) can1 1028FF00#00005045000088E8
(1680565949.642835) can1 1029FF00#00005E000000F401
(1680565949.644001) can1 102AFF00#00006101605E9700
(1680565949.644003) can1 102BFF00#005045454400C800
(1680565949.649209) can1 1810A7B1#8813881388138813
(1680565949.650484) can1 1811A7B1#8813851388138713
(1680565949.650487) can1 1801A7B1#0000881310270800
(1680565949.651730) can1 1812A7B1#8813881389138813
(1680565949.651731) can1 1802A7B1#640450C39A8F0055
(1680565949.653132) can1 1813A7B1#8913881388138813
(1680565949.653133) can1 1814A7B1#8813881389138813
(1680565949.655261) can1 1815A7B1#8913881388138913
(1680565949.656599) can1 1816A7B1#88138A1388138813
(1680565949.656601) can1 1817A7B1#8B1388138813FFFF
(1680565949.660677) can1 18A03D72#3200320000000B6F
(1680565949.660678) can1 1028FFF0#0000000000000000
(1680565949.666183) can1 14006528#803E00E1F5050101
(1680565949.666185) can1 14036528#0000000000000000
(1680565949.667391) can1 14046528#000000003F000000
(1680565949.667393) can1 1820A7C1#0000000000004928
(1680565949.668521) can1 14016528#A702000100000000
(1680565949.668522) can1 1821A7C1#00B0000000000000
(1680565949.669704) can1 14026528#0100010001000000
(1680565949.669705) can1 182FA7C1#7E11C13800000000
(1680565949.673000) can1 1028FF00#00005045000088E8
(1680565949.673002) can1 1029FF00#00005C000000F401
(1680565949.674158) can1 102AFF00#00006101605E9800
(1680565949.674159) can1 102BFF00#005045454400C800
(1680565949.684782) can1 0CFF1C90#0AC00A0000770213
(1680565949.703161) can1 1028FF00#00005045000088E8
(1680565949.703162) can1 1029FF00#00005B000000F401
(1680565949.704313) can1 102AFF00#00006101605E9900
(1680565949.704315) can1 102BFF00#005045454400C800
(1680565949.724521) can1 18F00501#0804400000000000
(1680565949.732913) can1 1028FF00#00005045000088E8
(1680565949.732914) can1 1029FF00#000059000000F401
(1680565949.734080) can1 102AFF00#00006101605E9A00
(1680565949.734082) can1 102BFF00#005045454400C800
(1680565949.735236) can1 18F00A01#0000000000000000
(1680565949.760705) can1 18A03D72#3200320000000C70
(1680565949.763470) can1 1028FF00#00005045000088E8
(1680565949.763472) can1 1029FF00#000058000000F401
(1680565949.764627) can1 102AFF00#00006101605F9B00
(1680565949.764628) can1 102BFF00#005045454400C800
(1680565949.765756) can1 14006528#803E00E1F5050101
(1680565949.765758) can1 14036528#0200000000000000
(1680565949.767054) can1 14046528#000000003F000000
(1680565949.767056) can1 1820A7C1#0000000000004928
(1680565949.768209) can1 1821A7C1#00B1000000000000
(1680565949.768211) can1 182FA7C1#7E11C13800000000
(1680565949.770002) can1 1028FFF0#0000000000000000
(1680565949.770003) can1 19BBB701#0000000000000000
(1680565949.771185) can1 0C01C1A7#0500A80000000000
(1680565949.771186) can1 0CFFA63D#00000000000000A8
(1680565949.772418) can1 00000301#013200000000083B
(1680565949.772420) can1 0C30723D#013200000000083B
(1680565949.774704) can1 18FAC603#0000000000000000
(1680565949.774705) can1 18FA9020#01AF000000000000
(1680565949.775912) can1 18FAC527#01FA000000000000
(1680565949.775913) can1 161088A2#2000140019003D00
(1680565949.777111) can1 161088A1#01000000005A6400
(1680565949.777113) can1 161088A4#0000000576000200
(1680565949.778288) can1 161088A5#0000000000000000
(1680565949.779756) can1 161088A6#0000000000000005
(1680565949.779758) can1 161088A7#0200000000000000
(1680565949.781002) can1 161088AE#0000000000000000
(1680565949.781003) can1 18F00105#40E8030000000000
(1680565949.782158) can1 161088A8#000000000000001D
(1680565949.782159) can1 161088A9#3200000000000000
(1680565949.783367) can1 161088AA#0000320000000000
(1680565949.784678) can1 161088AB#0000000000000000
(1680565949.784679) can1 0CFF1C90#0A400B00000C0213
(1680565949.785834) can1 1026D3D2#0000000000000000
(1680565949.785835) can1 1610AAAA#0000000000000000
(1680565949.787028) can1 1610AAAB#0000000000000000
(1680565949.793626) can1 1028FF00#00005045000088E8
(1680565949.793628) can1 1029FF00#000056000000F401
(1680565949.794783) can1 102AFF00#00006101605E9C00
(1680565949.794784) can1 102BFF00#005045454400C800
(1680565949.798184) can1 1801A7B1#0000881310270800
(1680565949.799589) can1 1802A7B1#640450C39A8F0056
(1680565949.799591) can1 1810A7B1#8813881388138813
(1680565949.800678) can1 1811A7B1#8813851388138713
(1680565949.800679) can1 1812A7B1#8813881389138813
(1680565949.802184) can1 1813A7B1#8913881388138813
(1680565949.803600) can1 1814A7B1#8813871389138813
(1680565949.804858) can1 1815A7B1#8913881388138913
(1680565949.804860) can1 1816A7B1#88138A1388138813
(1680565949.806185) can1 1817A7B1#8B1388138813FFFF
(1680565949.823783) can1 1028FF00#00005045000088E8
(1680565949.823784) can1 1029FF00#000055000000F401
(1680565949.824912) can1 102AFF00#00006101605E9D00
(1680565949.824913) can1 102BFF00#005045454400C800
(1680565949.826081) can1 18F00501#0804400000000000
(1680565949.834561) can1 18F00A01#0000000000000000
(1680565949.853912) can1 1028FF00#00005045000088E8
(1680565949.853913) can1 1029FF00#000054000000F401
(1680565949.855081) can1 102AFF00#00006101605E9E00
(1680565949.855083) can1 102BFF00#005045454400C800
(1680565949.860668) can1 18A03D72#3200320000000D71
(1680565949.865809) can1 14006528#803E00E1F5050101
(1680565949.865810) can1 14036528#0200000000000000
(1680565949.867340) can1 14046528#000000003F000000
(1680565949.867342) can1 1820A7C1#0000000000004928
(1680565949.868496) can1 1821A7C1#00B2000000000000
(1680565949.868498) can1 182FA7C1#7E11C13800000000
(1680565949.879473) can1 1028FFF0#0000000000000000
(1680565949.884057) can1 1028FF00#00005045000088E8
(1680565949.884057) can1 1029FF00#000053000000F401
(1680565949.885213) can1 0CFF1C90#0AC10C0000670213
(1680565949.885213) can1 102AFF00#00006101605E9F00
(1680565949.886368) can1 102BFF00#005045454400C800
(1680565949.914214) can1 1028FF00#00005045000088E8
(1680565949.914214) can1 1029FF00#000052000000F501
(1680565949.915369) can1 102AFF00#00006101605EA000
(1680565949.915370) can1 102BFF00#005045454400C800
(1680565949.924499) can1 18F00501#0804400000000000
(1680565949.934527) can1 18F00A01#0000000000000000
(1680565949.944370) can1 1028FF00#00005045000088E8
(1680565949.944370) can1 1029FF00#00004F000000F501
(1680565949.945525) can1 102AFF00#00006101605EA100
(1680565949.945525) can1 102BFF00#005045454400C800
(1680565949.949135) can1 1810A7B1#8813881388138813
(1680565949.950601) can1 1811A7B1#8813861388138713
(1680565949.950603) can1 1801A7B1#0000881310270800
(1680565949.951783) can1 1812A7B1#8813881389138813
(1680565949.951784) can1 1802A7B1#640450C39A8F0057
(1680565949.953029) can1 1813A7B1#8913881388138813
(1680565949.953030) can1 1814A7B1#8813881389138813
(1680565949.955419) can1 1815A7B1#8913881389138913
(1680565949.956523) can1 1816A7B1#88138A1388138813
(1680565949.956525) can1 1817A7B1#8B1388138813FFFF
(1680565949.960679) can1 18A03D72#3200320000000E72
(1680565949.965368) can1 14006528#803E00E1F5050101
(1680565949.965369) can1 14036528#0000000000000000
(1680565949.966628) can1 14046528#000000003F000000
(1680565949.966629) can1 182FA7C1#7E11C13800000000
(1680565949.968133) can1 1820A7C1#0000000000004928
(1680565949.968135) can1 1821A7C1#00B3000000000000
(1680565949.974562) can1 1028FF00#00005045000088E8
(1680565949.974564) can1 1029FF00#00004F000000F501
(1680565949.975706) can1 102AFF00#00006101605EA200
(1680565949.975707) can1 102BFF00#005045454400C800
(1680565949.984784) can1 0CFF1C90#0A410D00001C0213
(1680565949.989367) can1 1028FFF0#0000000000000000
(1680565949.989369) can1 19BBB701#0000000000000000
(1680565949.990576) can1 0C01C1A7#0500A90000000000
(1680565949.990577) can1 0CFFA63D#00000000000000A9
(1680565949.991783) can1 00000301#013200000000093C
(1680565949.991785) can1 0C30723D#013200000000093C
(1680565949.994081) can1 18FAC603#0000000000000000
(1680565949.994083) can1 18FA9020#01AF000000000000
(1680565949.995289) can1 18FAC527#01FA000000000000
(1680565949.995291) can1 161088A2#2000140019003D00
(1680565950.004735) can1 1028FF00#00005045000088E8
(1680565950.004736) can1 1029FF00#00004E000000F501
(1680565950.005885) can1 102AFF00#00006101605EA300
(1680565950.005886) can1 102BFF00#005045454400C800
(1680565950.024527) can1 18F00501#0804400000000000
(1680565950.034515) can1 18F00A01#0000000000000000
(1680565950.034516) can1 1028FF00#00005045000088E8
(1680565950.035680) can1 1029FF00#00004D000000F401
(1680565950.035682) can1 102AFF00#00006101605EA400
(1680565950.036836) can1 102BFF00#005045454400C800
(1680565950.058371) can1 161088A1#01000000005A6400
(1680565950.059654) can1 161088A4#0000000576000200
(1680565950.059655) can1 161088A5#0000000000000000
(1680565950.060811) can1 18A03D72#3200320000000F73
(1680565950.060812) can1 161088A6#0000000000000005
(1680565950.062003) can1 161088A7#0000000000000000
(1680565950.062005) can1 161088AE#0000000000000000
(1680565950.063860) can1 18F00105#40E8030000000000
(1680565950.063861) can1 161088A8#000000000000001D
(1680565950.065056) can1 1028FF00#00005045000088E8
(1680565950.065058) can1 1029FF00#00004B000000F401
(1680565950.066187) can1 102AFF00#00006101605EA500
(1680565950.066188) can1 102BFF00#005045454400C800
(1680565950.067342) can1 14006528#803E00E1F5050101
(1680565950.067344) can1 161088A9#3200000000000000
(1680565950.068498) can1 14036528#0000000000000000
(1680565950.068499) can1 161088AA#0000320000000000
(1680565950.069654) can1 14046528#000000003F000000
(1680565950.069656) can1 161088AB#0000000000000000
(1680565950.070810) can1 1820A7C1#0000000000004928
(1680565950.070811) can1 1026D3D2#0000000000000000
(1680565950.072003) can1 1821A7C1#00B4000000000000
(1680565950.072005) can1 1610AAAA#0000000000000000
(1680565950.073135) can1 182FA7C1#7E11C13800000000
(1680565950.073136) can1 1610AAAB#0000000000000000
(1680565950.074471) can1 161088A3#F000F20015010901
(1680565950.074472) can1 161088AC#0000000000000901
(1680565950.075628) can1 161088AD#0000E80300000000
(1680565950.075630) can1 1000E400#1F02000000000000
(1680565950.076843) can1 161088AF#0000000000000000
(1680565950.084784) can1 0CFF1C90#0A410E0000940213
(1680565950.095189) can1 1028FF00#00005045000088E8
(1680565950.095190) can1 1029FF00#000049000000F401
(1680565950.096343) can1 102AFF00#00006101605EA600
(1680565950.096344) can1 102BFF00#005045454400C800
(1680565950.098620) can1 1801A7B1#0000881310270800
(1680565950.098622) can1 1802A7B1#640450C39A8F0058
(1680565950.099758) can1 1810A7B1#8813881388138813
(1680565950.099759) can1 1811A7B1#8813861388138713
(1680565950.101186) can1 1812A7B1#8813881389138813
(1680565950.102602) can1 1813A7B1#8913881388138813
(1680565950.102604) can1 1814A7B1#8813881389138813
(1680565950.105289) can1 1815A7B1#8913881388138913
(1680565950.106603) can1 1816A7B1#88138A1388138813
(1680565950.106604) can1 1817A7B1#8B1388138813FFFF
(1680565950.124527) can1 18F00501#0804400000000000
(1680565950.124529) can1 1028FF00#00005045000088E8
(1680565950.125914) can1 1029FF00#000048000000F401
(1680565950.125915) can1 102AFF00#00006101605EA700
(1680565950.127056) can1 102BFF00#005045454400C800
(1680565950.134578) can1 18F00A01#0000000000000000
(1680565950.155475) can1 1028FF00#00005045000088E8
(1680565950.155477) can1 1029FF00#000047000000F401
(1680565950.156629) can1 102AFF00#00006101605EA800
(1680565950.156630) can1 102BFF00#005045454400C800
(1680565950.157784) can1 18F8A7B1#0001010201210000
(1680565950.159369) can1 1028FFF0#0000000000000000
(1680565950.160654) can1 18FEA3B2#047C00CF0B00003F
(1680565950.160656) can1 18A03D72#3200320000000064
(1680565950.165099) can1 14006528#803E00E1F5050101
(1680565950.165100) can1 14036528#0000000000000000
(1680565950.166565) can1 14046528#000000003F000000
(1680565950.166567) can1 14016528#A702000100000000
(1680565950.167775) can1 1820A7C1#0000000000004928
(1680565950.167777) can1 14026528#0100010001000000
(1680565950.168914) can1 1821A7C1#00B5000000000000
(1680565950.168916) can1 182FA7C1#7E11C13800000000
(1680565950.184759) can1 0CFF1C90#0AC10F0000EF0213
(1680565950.184761) can1 1028FF00#00005045000088E8
(1680565950.185915) can1 1029FF00#000045000000F401
(1680565950.185916) can1 102AFF00#00006101605EA900
(1680565950.187075) can1 102BFF00#005045454400C800
(1680565950.215762) can1 1028FF00#00005045000088E8
(1680565950.215763) can1 1029FF00#000044000000F401
(1680565950.216915) can1 102AFF00#00006101605EAA00
(1680565950.216916) can1 102BFF00#005045454400C800
(1680565950.224525) can1 18F00501#0804400000000000
(1680565950.234559) can1 18F00A01#0000000000000000
(1680565950.246008) can1 1028FF00#00005045000088E8
(1680565950.246011) can1 1029FF00#000044000000F401
(1680565950.247111) can1 102AFF00#00006101605EAB00
(1680565950.247113) can1 102BFF00#005045454400C800
(1680565950.249604) can1 1810A7B1#8813881388138813
(1680565950.249606) can1 1811A7B1#8813861388138713
(1680565950.251501) can1 1812A7B1#8813881389138813
(1680565950.251502) can1 1801A7B1#0000881310270800
(1680565950.252733) can1 1813A7B1#8913881388138813
(1680565950.252735) can1 1802A7B1#640450C39A8F0059
(1680565950.253788) can1 1814A7B1#8813881389138813
(1680565950.254915) can1 1815A7B1#8913881388138913
(1680565950.254917) can1 1816A7B1#88138A1388138813
(1680565950.256188) can1 1817A7B1#8B1388138813FFFF
(1680565950.260708) can1 18A03D72#3200320000000165
(1680565950.265005) can1 14006528#803E00E1F5050101
(1680565950.265006) can1 14036528#0000000000000000
(1680565950.266507) can1 14046528#000000003F000000
(1680565950.266508) can1 182FA7C1#7E11C13800000000
(1680565950.268058) can1 1820A7C1#0000000000004928
(1680565950.268059) can1 1028FFF0#0000000000000000
(1680565950.269213) can1 1821A7C1#00B6000000000000
(1680565950.269214) can1 19BBB701#0000000000000000
(1680565950.270395) can1 0C01C1A7#0500AA0000000000
(1680565950.270396) can1 0CFFA63D#00000000000000AA
(1680565950.271604) can1 00000301#0132000000000A3D
(1680565950.273239) can1 0C30723D#0132000000000A3D
(1680565950.273241) can1 18FAC603#0000000000000000
(1680565950.274506) can1 18FA9020#01AF000000000000
(1680565950.274508) can1 18FAC527#01FA000000000000
(1680565950.275655) can1 161088A2#2000150019003C00
(1680565950.275657) can1 1028FF00#00005045000088E8
(1680565950.276822) can1 1029FF00#000042000000F401
(1680565950.276824) can1 102AFF00#00006101605EAC00
(1680565950.278004) can1 102BFF00#005045454400C800
(1680565950.278006) can1 161088A1#01000000005A6400
(1680565950.279135) can1 161088A4#0000000576000200
(1680565950.279137) can1 161088A5#0000000000000000
(1680565950.280348) can1 161088A6#0000000000000005
(1680565950.280350) can1 161088A7#0000000000000000
(1680565950.281555) can1 161088AE#0000000000000000
(1680565950.283240) can1 18F00105#40E8030000000000
(1680565950.283241) can1 161088A8#000000000000001D
(1680565950.284421) can1 161088A9#3200000000000000
(1680565950.284423) can1 0CFF1C90#0AC3000000470213
(1680565950.285578) can1 161088AA#0000320000000000
(1680565950.285579) can1 161088AB#0000000000000000
(1680565950.286785) can1 1026D3D2#0000000000000000
(1680565950.288317) can1 1610AAAA#0000000000000000
(1680565950.288319) can1 1610AAAB#0000000000000000
(1680565950.306242) can1 1028FF00#00005045000088E8
(1680565950.306244) can1 1029FF00#000040000000F401
(1680565950.307421) can1 102AFF00#00006101605EAD00
(1680565950.307423) can1 102BFF00#005045454400C800
(1680565950.324526) can1 18F00501#0804400000000000
(1680565950.334564) can1 18F00A01#0000000000000000
(1680565950.336422) can1 1028FF00#00005045000088E8
(1680565950.336423) can1 1029FF00#00003F000000F401
(1680565950.337579) can1 102AFF00#00006101605EAE00
(1680565950.337580) can1 102BFF00#005045454400C800
(1680565950.360735) can1 18A03D72#3200320000000266
(1680565950.364786) can1 14006528#803E00E1F5050101
(1680565950.364788) can1 14036528#0200000000000000
(1680565950.366162) can1 14046528#000000003F000000
(1680565950.366164) can1 1028FF00#00005045000088E8
(1680565950.367318) can1 1029FF00#00003E000000F401
(1680565950.367320) can1 102AFF00#00006101605EAF00
(1680565950.368474) can1 102BFF00#005045454400C800
(1680565950.368476) can1 1820A7C1#0000000000004928
(1680565950.369631) can1 1821A7C1#00B7000000000000
(1680565950.369632) can1 182FA7C1#7E11C13800000000
(1680565950.378058) can1 1028FFF0#0000000000000000
(1680565950.384760) can1 0CFF1C90#0A430100003C0213
(1680565950.396709) can1 1028FF00#00005045000088E8
(1680565950.396710) can1 1029FF00#00003E000000F401
(1680565950.397863) can1 102AFF00#00006101605EB000
(1680565950.397864) can1 102BFF00#005045454400C800
(1680565950.399165) can1 1810A7B1#8813881388138813
(1680565950.400604) can1 1811A7B1#8813851388138713
(1680565950.400606) can1 1801A7B1#0000881310270800
(1680565950.401786) can1 1812A7B1#8813881389138813
(1680565950.401788) can1 1802A7B1#640450C39A8F005A
(1680565950.403032) can1 1813A7B1#8913881388138813
(1680565950.403034) can1 1814A7B1#8813871389138813
(1680565950.405414) can1 1815A7B1#8913881388138913
(1680565950.406517) can1 1816A7B1#88138A1388138813
(1680565950.406519) can1 1817A7B1#8B1388138813FFFF
(1680565950.424502) can1 18F00501#0804400000000000
(1680565950.426840) can1 1028FF00#00005045000088E8
(1680565950.426841) can1 1029FF00#00003D000000F401
(1680565950.428008) can1 102AFF00#00006101605EB100
(1680565950.428009) can1 102BFF00#005045454400C800
(1680565950.434528) can1 18F00A01#0000000000000000
(1680565950.457008) can1 1028FF00#00005045000088E8
(1680565950.457009) can1 1029FF00#00003B000000F401
(1680565950.458165) can1 102AFF00#00006101605EB200
(1680565950.458166) can1 102BFF00#005045454400C800
(1680565950.460688) can1 18A03D72#3200320000000367
(1680565950.464607) can1 14006528#803E00E1F5050101
(1680565950.464608) can1 14036528#0200000000000000
(1680565950.466035) can1 14046528#000000003F000000
(1680565950.467373) can1 182FA7C1#7E11C13800000000
(1680565950.467373) can1 1820A7C1#0000000000004928
(1680565950.468555) can1 1821A7C1#00B8000000000000
(1680565950.484737) can1 0CFF1C90#0A43020000B40213
(1680565950.487165) can1 1028FF00#00005045000088E8
(1680565950.487165) can1 1029FF00#00003A000000F401
(1680565950.488322) can1 1028FFF0#0000000000000000
(1680565950.488322) can1 102AFF00#00006101605EB300
(1680565950.489477) can1 102BFF00#005045454400C800
(1680565950.489477) can1 19BBB701#0000000000000000
(1680565950.490659) can1 0C01C1A7#0500AB0000000000
(1680565950.490659) can1 0CFFA63D#00000000000000AB
(1680565950.492633) can1 00000301#0132000000000B3E
(1680565950.492633) can1 0C30723D#0132000000000B3E
(1680565950.493815) can1 18FAC603#0000000000000000
(1680565950.493816) can1 18FA9020#01AF000000000000
(1680565950.517321) can1 1028FF00#00005045000088E8
(1680565950.517322) can1 1029FF00#000039000000F401
(1680565950.518491) can1 102AFF00#00006101605EB400
(1680565950.518492) can1 102BFF00#005045454400C800
(1680565950.524503) can1 18F00501#0804400000000000
(1680565950.534530) can1 18F00A01#0000000000000000
(1680565950.547467) can1 1028FF00#00005045000088E8
(1680565950.547468) can1 1029FF00#000039000000F501
(1680565950.548633) can1 102AFF00#00006101605EB500
(1680565950.548634) can1 102BFF00#005045454400C800
(1680565950.549763) can1 1801A7B1#0000881310270800
(1680565950.549764) can1 1802A7B1#640450C39A8F005B
(1680565950.550867) can1 1810A7B1#8813881388138813
(1680565950.550867) can1 1811A7B1#8813861388138713
(1680565950.551983) can1 1812A7B1#8813881389138813
(1680565950.551983) can1 1813A7B1#8913881388138813
(1680565950.553218) can1 1814A7B1#8813871389138813
(1680565950.555269) can1 1815A7B1#8913881388138913
(1680565950.556581) can1 1816A7B1#88138A1388138813
(1680565950.556582) can1 18FAC527#01FA000000000000
(1680565950.557712) can1 1817A7B1#8B1388138813FFFF
(1680565950.557712) can1 161088A2#2000140019003D00
(1680565950.558867) can1 161088A1#01000000005A6400
(1680565950.558868) can1 161088A4#0000000576000200
(1680565950.560039) can1 161088A5#0000000000000000
(1680565950.560041) can1 161088A6#0000000000000005
(1680565950.561241) can1 18A03D72#3200320000000468
(1680565950.561243) can1 161088A7#0200000000000000
(1680565950.562510) can1 161088AE#0000000000000000
(1680565950.562512) can1 18F00105#40E8030000000000
(1680565950.563683) can1 161088A8#000000000000001D
(1680565950.563685) can1 161088A9#3200000000000000
(1680565950.564839) can1 14006528#803E00E1F5050101
(1680565950.564840) can1 161088AA#0000320000000000
(1680565950.565997) can1 14036528#0000000000000000
(1680565950.565998) can1 161088AB#0000000000000000
(1680565950.567163) can1 14046528#000000003F000000
(1680565950.567165) can1 1026D3D2#0000000000000000
(1680565950.568319) can1 1820A7C1#0000000000004928
(1680565950.568321) can1 1610AAAA#0000000000000000
(1680565950.569476) can1 1821A7C1#00B9000000000000
(1680565950.569477) can1 1610AAAB#0000000000000000
(1680565950.570631) can1 182FA7C1#7E11C13800000000
(1680565950.570633) can1 161088A3#F000F20015010901
(1680565950.572423) can1 161088AC#0000000000000901
(1680565950.572425) can1 161088AD#0000E80300000000
(1680565950.573631) can1 1000E400#1F02000000000000
(1680565950.573633) can1 161088AF#0000000000000000
(1680565950.577657) can1 1028FF00#00005045000088E8
(1680565950.577659) can1 1029FF00#000038000000F501
(1680565950.578814) can1 102AFF00#00006101605EB600
(1680565950.578815) can1 102BFF00#005045454400C800
(1680565950.584762) can1 0CFF1C90#0AC3030000CF0213
(1680565950.607840) can1 1028FF00#00005045000088E8
(1680565950.607841) can1 1029FF00#000037000000F501
(1680565950.609008) can1 102AFF00#00006101605EB700
(1680565950.609009) can1 102BFF00#005045454400C800
(1680565950.624529) can1 18F00501#0704400000000000
(1680565950.634557) can1 18F00A01#0000000000000000
(1680565950.638007) can1 1028FF00#00005045000088E8
(1680565950.638009) can1 1029FF00#000035000000F401
(1680565950.639138) can1 102AFF00#00006101605EB800
(1680565950.639140) can1 102BFF00#005045454400C800
(1680565950.658010) can1 1028FFF0#0000000000000000
(1680565950.660710) can1 18A03D72#3200320000000569
(1680565950.664398) can1 14006528#803E00E1F5050101
(1680565950.664400) can1 14036528#0000000000000000
(1680565950.665606) can1 14046528#000000003F000000
(1680565950.665608) can1 14016528#A802000100000000
(1680565950.667008) can1 14026528#0100010001000000
(1680565950.667010) can1 1820A7C1#0000000000004928
(1680565950.668138) can1 1821A7C1#00BA000000000000
(1680565950.668139) can1 1028FF00#00005045000088E8
(1680565950.669294) can1 1029FF00#000034000000F401
(1680565950.669295) can1 102AFF00#00006101605EB900
(1680565950.670438) can1 102BFF00#005045454400C800
(1680565950.670440) can1 182FA7C1#7E11C13800000000
(1680565950.684765) can1 0CFF1C90#0A42040000A40213
(1680565950.698298) can1 1028FF00#00005045000088E8
(1680565950.698299) can1 1029FF00#000034000000F401
(1680565950.699450) can1 102AFF00#00006101605EBA00
(1680565950.699452) can1 102BFF00#005045454400C800
(1680565950.700580) can1 1801A7B1#0000881310270800
(1680565950.700581) can1 1810A7B1#8813881388138813
(1680565950.701684) can1 1802A7B1#640450C39A8F005C
(1680565950.701686) can1 1811A7B1#8813861388138713
(1680565950.702762) can1 1812A7B1#8813881389138813
(1680565950.702764) can1 1813A7B1#8913881388138813
(1680565950.703864) can1 1814A7B1#8813871389138813
(1680565950.704873) can1 1815A7B1#8913881388138913
(1680565950.704874) can1 1816A7B1#88138A1388138813
(1680565950.706190) can1 1817A7B1#8B1388138813FFFF
(1680565950.724529) can1 18F00501#0804400000000000
(1680565950.728399) can1 1028FF00#00005045000088E8
(1680565950.728400) can1 1029FF00#000033000000F401
(1680565950.729546) can1 102AFF00#00006101605EBB00
(1680565950.729548) can1 102BFF00#005045454400C800
(1680565950.734515) can1 18F00A01#0000000000000000
(1680565950.758582) can1 1028FF00#00005045000088E8
(1680565950.758584) can1 1029FF00#000033000000F401
(1680565950.759737) can1 102AFF00#00006101605EBC00
(1680565950.759738) can1 102BFF00#005045454400C800
(1680565950.760890) can1 18A03D72#320032000000066A
(1680565950.764373) can1 14006528#803E00E1F5050101
(1680565950.764375) can1 14036528#0000000000000000
(1680565950.765918) can1 14046528#000000003F000000
(1680565950.767140) can1 1028FFF0#0000000000000000
(1680565950.767141) can1 1820A7C1#0000000000004928
(1680565950.768294) can1 1821A7C1#00BB000000000000
(1680565950.768296) can1 182FA7C1#7E11C13800000000
(1680565950.769476) can1 19BBB701#0000000000000000
(1680565950.769478) can1 0C01C1A7#0500AC0000000000
(1680565950.770659) can1 0CFFA63D#00000000000000AC
(1680565950.771865) can1 00000301#0132000000000C3F
(1680565950.771867) can1 0C30723D#0132000000000C3F
(1680565950.773061) can1 18FAC603#0000000000000000
(1680565950.773062) can1 18FA9020#01AF000000000000
(1680565950.774269) can1 18FAC527#01FA000000000000
(1680565950.774270) can1 161088A2#2000140019003D00
(1680565950.775451) can1 161088A1#01000000005A6400
(1680565950.777008) can1 161088A4#0000000576000200
(1680565950.777009) can1 161088A5#0000000000000000
(1680565950.778139) can1 161088A6#0000000000000005
(1680565950.778140) can1 161088A7#0000000000000000
(1680565950.779347) can1 161088AE#0000000000000000
(1680565950.779348) can1 18F00105#40E8030000000000
(1680565950.780529) can1 161088A8#000000000000001D
(1680565950.781841) can1 161088A9#3200000000000000
(1680565950.781842) can1 161088AA#0000320000000000
(1680565950.783083) can1 161088AB#0000000000000000
(1680565950.783084) can1 1026D3D2#0000000000000000
(1680565950.784243) can1 1610AAAA#0000000000000000
(1680565950.784244) can1 0CFF1C90#0AC2050000DF0213
(1680565950.785399) can1 1610AAAB#0000000000000000
(1680565950.788711) can1 1028FF00#00005045000088E8
(1680565950.788713) can1 1029FF00#000033000000F401
(1680565950.789865) can1 102AFF00#00006101605EBD00
(1680565950.789866) can1 102BFF00#005045454400C800
(1680565950.818891) can1 1028FF00#00005045000088E8
(1680565950.818893) can1 1029FF00#000033000000F401
(1680565950.820061) can1 102AFF00#00006101605EBE00
(1680565950.820063) can1 102BFF00#005045454400C800
(1680565950.824529) can1 18F00501#0804400000000000
(1680565950.834533) can1 18F00A01#0000000000000000
(1680565950.849038) can1 1028FF00#00005045000088E8
(1680565950.849038) can1 1029FF00#000036000000F401
(1680565950.850217) can1 102AFF00#00006101605EBF00
(1680565950.850219) can1 102BFF00#005045454400C800
(1680565950.851348) can1 1810A7B1#8813881388138813
(1680565950.851349) can1 1811A7B1#8813861388138713
(1680565950.852426) can1 1812A7B1#8813881389138813
(1680565950.852427) can1 1801A7B1#0000881310270800
(1680565950.853555) can1 1802A7B1#640450C39A8F0000
(1680565950.853557) can1 1813A7B1#8913881388138813
(1680565950.854633) can1 1814A7B1#8813871388138813
(1680565950.854635) can1 1815A7B1#8913881389138913
(1680565950.856530) can1 1816A7B1#88138A1388138813
(1680565950.856531) can1 1817A7B1#8B1388138813FFFF
(1680565950.860737) can1 18A03D72#320032000000076B
(1680565950.864062) can1 14006528#803E00E1F5050101
(1680565950.864063) can1 14036528#0000000000000000
(1680565950.865607) can1 14046528#000000003F000000
(1680565950.867296) can1 182FA7C1#7E11C13800000000
(1680565950.867298) can1 1820A7C1#0000000000004928
(1680565950.868452) can1 1821A7C1#00BC000000000000
(1680565950.876685) can1 1028FFF0#0000000000000000
(1680565950.879192) can1 1028FF00#00005045000088E8
(1680565950.879193) can1 1029FF00#000038000000F401
(1680565950.880374) can1 102AFF00#00006101605EC000
(1680565950.880375) can1 102BFF00#005045454400C800
(1680565950.884738) can1 0CFF1C90#0AC2060000570213
(1680565950.909348) can1 1028FF00#00005045000088E8
(1680565950.909350) can1 1029FF00#00003A000000F401
(1680565950.910502) can1 102AFF00#00006101605EC100
(1680565950.910504) can1 102BFF00#005045454400C800
(1680565950.924556) can1 18F00501#0804400000000000
(1680565950.934533) can1 18F00A01#0000000000000000
(1680565950.939480) can1 1028FF00#00005045000088E8
(1680565950.939481) can1 1029FF00#00003C000000F401
(1680565950.940636) can1 102AFF00#00006101605EC200
(1680565950.940636) can1 102BFF00#005045454400C800
(1680565950.960740) can1 18A03D72#320032000000086C
(1680565950.964010) can1 14006528#803E00E1F5050101
(1680565950.964011) can1 14036528#0000000000000000
(1680565950.965478) can1 14046528#000000003F000000
(1680565950.967273) can1 182FA7C1#7E11C13800000000
(1680565950.967275) can1 1820A7C1#0000000000004928
(1680565950.968426) can1 1821A7C1#00BD000000000000
(1680565950.969662) can1 1028FF00#00005045000088E8
(1680565950.969663) can1 1029FF00#00003D000000F401
(1680565950.970816) can1 102AFF00#00006101605EC300
(1680565950.970817) can1 102BFF00#005045454400C800
(1680565950.984738) can1 0CFF1C90#0A420700002C0213
(1680565950.986517) can1 1028FFF0#0000000000000000
(1680565950.986519) can1 19BBB701#0000000000000000
(1680565950.987764) can1 0C01C1A7#0500AD0000000000
(1680565950.987766) can1 0CFFA63D#00000000000000AD
(1680565950.989010) can1 00000301#0132000000000D40
(1680565950.989011) can1 0C30723D#0132000000000D40
(1680565950.991270) can1 18FAC603#0000000000000000
(1680565950.991272) can1 18FA9020#01AF000000000000
(1680565950.992478) can1 18FAC527#01FA000000000000
(1680565950.992480) can1 161088A2#2000140019003D00
(1680565950.999504) can1 1810A7B1#8813881388138813
(1680565950.999506) can1 1028FF00#00005045000088E8
(1680565951.000660) can1 1029FF00#00003E000000F401
(1680565951.000662) can1 102AFF00#00006101605EC400
(1680565951.001816) can1 102BFF00#005045454400C800
(1680565951.001818) can1 1801A7B1#0000881310270800
(1680565951.003010) can1 1802A7B1#640450C39A8F0001
(1680565951.003011) can1 1811A7B1#8813861388138713
(1680565951.004010) can1 1812A7B1#8813881389138813
(1680565951.004011) can1 1813A7B1#8913881388138813
(1680565951.005114) can1 1814A7B1#8813881388138813
(1680565951.005116) can1 1815A7B1#8913881388138913
(1680565951.006166) can1 1816A7B1#88138A1388138813
(1680565951.006168) can1 1817A7B1#8B1388138813FFFF
(1680565951.024534) can1 18F00501#0804400000000000
(1680565951.030013) can1 1028FF00#00005045000088E8
(1680565951.030015) can1 1029FF00#000040000000F401
(1680565951.031141) can1 102AFF00#00006101605EC500
(1680565951.031142) can1 102BFF00#005045454400C800
(1680565951.034520) can1 18F00A01#0000000000000000
(1680565951.055560) can1 161088A1#01000000005A6400
(1680565951.056866) can1 161088A4#0000000576000200
(1680565951.056868) can1 161088A5#0000000000000000
(1680565951.058063) can1 161088A6#0000000000000005
(1680565951.058065) can1 161088A7#0000000000000000
(1680565951.059245) can1 161088AE#0000000000000000
(1680565951.059247) can1 18F00105#40E8030000000000
(1680565951.060427) can1 1028FF00#00005045000088E8
(1680565951.060428) can1 1029FF00#000042000000F401
(1680565951.061583) can1 102AFF00#00006101605EC600
(1680565951.061584) can1 102BFF00#005045454400C800
(1680565951.062739) can1 161088A8#000000000000001D
(1680565951.062740) can1 18A03D72#320032000000096D
(1680565951.063867) can1 14006528#803E00E1F5050101
(1680565951.063868) can1 161088A9#3200000000000000
(1680565951.065011) can1 14036528#0000000000000000
(1680565951.065012) can1 14046528#000000003F000000
(1680565951.066193) can1 161088AA#0000320000000000
(1680565951.066194) can1 161088AB#0000000000000000
(1680565951.067375) can1 1820A7C1#0000000000004928
(1680565951.067376) can1 1026D3D2#0000000000000000
(1680565951.068557) can1 1821A7C1#00BE000000000000
(1680565951.068559) can1 1610AAAA#0000000000000000
(1680565951.069713) can1 182FA7C1#7E11C13800000000
(1680565951.069715) can1 1610AAAB#0000000000000000
(1680565951.071037) can1 161088A3#F000F30015010901
(1680565951.071038) can1 161088AC#0000000000000901
(1680565951.072219) can1 161088AD#0000E80300000000
(1680565951.072220) can1 1000E400#1F02000000000000
(1680565951.073427) can1 161088AF#0000000000000000
(1680565951.084742) can1 0CFF1C90#0A40080000840213
(1680565951.090271) can1 1028FF00#00005045000088E8
(1680565951.090272) can1 1029FF00#000044000000F401
(1680565951.091453) can1 102AFF00#00006101605EC700
(1680565951.091455) can1 102BFF00#005045454400C800
(1680565951.120428) can1 1028FF00#00005045000088E8
(1680565951.120429) can1 1029FF00#000044000000F401
(1680565951.121609) can1 102AFF00#00006101605EC800
(1680565951.121610) can1 102BFF00#005045454400C800
(1680565951.124557) can1 18F00501#0804400000000000
(1680565951.134555) can1 18F00A01#0000000000000000
(1680565951.148243) can1 1801A7B1#0000881310270800
(1680565951.149584) can1 1802A7B1#640450C39A8F0002
(1680565951.149585) can1 1810A7B1#8813881388138813
(1680565951.150714) can1 1028FF00#00005045000088E8
(1680565951.150716) can1 1029FF00#000047000000F501
(1680565951.151843) can1 102AFF00#00006101605EC900
(1680565951.151845) can1 102BFF00#005045454400C800
(1680565951.153011) can1 1811A7B1#8813861388138713
(1680565951.153012) can1 1812A7B1#8813881389138813
(1680565951.154061) can1 1813A7B1#8913881388138813
(1680565951.154068) can1 1814A7B1#8813881389138813
(1680565951.155141) can1 1815A7B1#8913881388138813
(1680565951.155143) can1 1816A7B1#88138A1388138813
(1680565951.156251) can1 1817A7B1#8B1388138813FFFF
(1680565951.156253) can1 1028FFF0#0000000000000000
(1680565951.160193) can1 18F8A7B1#0001010201210000
(1680565951.160194) can1 18A03D72#3200320000000A6E
(1680565951.163636) can1 14006528#803E00E1F5050101
(1680565951.163637) can1 14036528#0000000000000000
(1680565951.165063) can1 14046528#000000003F000000
(1680565951.165065) can1 14016528#A802000100000000
(1680565951.166401) can1 14026528#0100010001000000
(1680565951.166403) can1 182FA7C1#7E11C13800000000
(1680565951.167791) can1 1820A7C1#0000000000004928
(1680565951.167793) can1 1821A7C1#00BF000000000000
(1680565951.173168) can1 18FEA3B2#047C00CF0B010040
(1680565951.180792) can1 1028FF00#00005045000088E8
(1680565951.180793) can1 1029FF00#000048000000F501
(1680565951.181921) can1 102AFF00#00006101605ECA00
(1680565951.181923) can1 102BFF00#005045454400C800
(1680565951.184740) can1 0CFF1C90#0AC0090000FF0213
(1680565951.210909) can1 1028FF00#00005045000088E8
(1680565951.210910) can1 1029FF00#000049000000F501
(1680565951.212072) can1 102AFF00#00006101605ECB00
(1680565951.212073) can1 102BFF00#005045454400C800
(1680565951.224540) can1 18F00501#0804400000000000
(1680565951.234540) can1 18F00A01#0000000000000000
(1680565951.241095) can1 1028FF00#00005045000088E8
(1680565951.241096) can1 1029FF00#00004B000000F401
(1680565951.242217) can1 102AFF00#00006101605ECC00
(1680565951.242218) can1 102BFF00#005045454400C800
(1680565951.260769) can1 18A03D72#3200320000000B6F
(1680565951.263768) can1 14006528#803E00E1F5050101
(1680565951.263769) can1 14036528#0000000000000000
(1680565951.265350) can1 14046528#000000003F000000
(1680565951.265351) can1 1028FFF0#0000000000000000
(1680565951.266506) can1 19BBB701#0000000000000000
(1680565951.266508) can1 0C01C1A7#0500AE0000000000
(1680565951.267714) can1 1820A7C1#0000000000004928
(1680565951.267715) can1 0CFFA63D#00000000000000AE
(1680565951.268868) can1 1821A7C1#00C0000000000000
(1680565951.268869) can1 00000301#0132000000000E41
(1680565951.270038) can1 182FA7C1#7E11C13800000000
(1680565951.270040) can1 0C30723D#0132000000000E41
(1680565951.271220) can1 18FAC603#0000000000000000
(1680565951.271221) can1 1028FF00#00005045000088E8
(1680565951.272377) can1 1029FF00#00004C000000F401
(1680565951.272378) can1 102AFF00#00006101605ECD00
(1680565951.273532) can1 102BFF00#005045454400C800
(1680565951.273533) can1 18FA9020#01AF000000000000
(1680565951.275532) can1 18FAC527#01FA000000000000
(1680565951.275533) can1 161088A2#2000140019003D00
(1680565951.276715) can1 161088A1#01000000005A6400
(1680565951.276716) can1 161088A4#0000000576000200
(1680565951.277876) can1 161088A5#0000000000000000
(1680565951.277877) can1 161088A6#0000000000000005
(1680565951.279116) can1 161088A7#0000000000000000
(1680565951.280454) can1 161088AE#0000000000000000
(1680565951.280456) can1 18F00105#40E8030000000000
(1680565951.281640) can1 161088A8#000000000000001D
(1680565951.281642) can1 161088A9#3200000000000000
(1680565951.282844) can1 161088AA#0000320000000000
(1680565951.282845) can1 161088AB#0000000000000000
(1680565951.284039) can1 1026D3D2#0000000000000000
(1680565951.284041) can1 0CFF1C90#0AC00A0000770213
(1680565951.285532) can1 1610AAAA#0000000000000000
(1680565951.285533) can1 1610AAAB#0000000000000000
(1680565951.299168) can1 1810A7B1#8813881388138813
(1680565951.300611) can1 1811A7B1#8813861388138713
(1680565951.300612) can1 1801A7B1#0000881310270800
(1680565951.301818) can1 1028FF00#00005045000088E8
(1680565951.301819) can1 1029FF00#00004E000000F401
(1680565951.303012) can1 102AFF00#00006101605ECE00
(1680565951.303014) can1 102BFF00#005045454400C800
(1680565951.304117) can1 1802A7B1#640450C39A8F0003
(1680565951.304118) can1 1812A7B1#8813881389138813
(1680565951.305195) can1 1813A7B1#8913881388138813
(1680565951.305196) can1 1814A7B1#8813881389138813
(1680565951.306278) can1 1815A7B1#8913881388138913
(1680565951.306279) can1 1816A7B1#88138A1388138813
(1680565951.307377) can1 1817A7B1#8B1388138813FFFF
(1680565951.324558) can1 18F00501#0804400000000000
(1680565951.331506) can1 1028FF00#00005045000088E8
(1680565951.331508) can1 1029FF00#00004F000000F401
(1680565951.332663) can1 102AFF00#00006101605ECF00
(1680565951.332665) can1 102BFF00#005045454400C800
(1680565951.334555) can1 18F00A01#0000000000000000
(1680565951.360793) can1 18A03D72#3200320000000C70
(1680565951.360795) can1 1028FF00#00005045000088E8
(1680565951.362273) can1 1029FF00#000052000000F401
(1680565951.362274) can1 102AFF00#00006101605ED000
(1680565951.363429) can1 102BFF00#005045454400C800
(1680565951.363431) can1 14006528#803E00E1F5050101
(1680565951.365377) can1 14036528#0000000000000000
(1680565951.365378) can1 14046528#000000003F000000
(1680565951.367146) can1 182FA7C1#7E11C13800000000
(1680565951.367148) can1 1820A7C1#0000000000004928
(1680565951.368325) can1 1821A7C1#00C1000000000000
(1680565951.375276) can1 1028FFF0#0000000000000000
(1680565951.384743) can1 0CFF1C90#0A400B00000C0213
(1680565951.391848) can1 1028FF00#00005045000088E8
(1680565951.391850) can1 1029FF00#000053000000F401
(1680565951.393013) can1 102AFF00#00006101605ED100
(1680565951.393015) can1 102BFF00#005045454400C800
(1680565951.422015) can1 1028FF00#00005045000088E8
(1680565951.422017) can1 1029FF00#000054000000F401
(1680565951.423143) can1 102AFF00#00006101605ED200
(1680565951.423145) can1 102BFF00#005045454400C800
(1680565951.424560) can1 18F00501#0804400000000000
(1680565951.434559) can1 18F00A01#0000000000000000
(1680565951.448273) can1 1801A7B1#0000881310270800
(1680565951.449481) can1 1802A7B1#640450C39A8F0004
(1680565951.449483) can1 1810A7B1#8813881388138813
(1680565951.450594) can1 1811A7B1#8813861388138713
(1680565951.451612) can1 1812A7B1#8813881389138813
(1680565951.451613) can1 1028FF00#00005045000088E8
(1680565951.452768) can1 1029FF00#000056000000F301
(1680565951.452769) can1 102AFF00#00006101605ED300
(1680565951.453923) can1 102BFF00#005045454400C800
(1680565951.453924) can1 1813A7B1#8913881388138813
(1680565951.455013) can1 1814A7B1#8813881389138813
(1680565951.455015) can1 1815A7B1#8913881388138813
(1680565951.456118) can1 1816A7B1#88138A1388138813
(1680565951.456119) can1 1817A7B1#8B1388138813FFFF
(1680565951.460793) can1 18A03D72#3200320000000D71
(1680565951.463378) can1 14006528#803E00E1F5050101
(1680565951.463379) can1 14036528#0000000000000000
(1680565951.464895) can1 14046528#000000003F000000
(1680565951.467117) can1 182FA7C1#7E11C13800000000
(1680565951.467119) can1 1820A7C1#0000000000004928
(1680565951.468274) can1 1821A7C1#00C2000000000000
(1680565951.482300) can1 1028FF00#00005045000088E8
(1680565951.482302) can1 1029FF00#000057000000F401
(1680565951.483456) can1 102AFF00#00006101605ED400
(1680565951.483457) can1 102BFF00#005045454400C800
(1680565951.484716) can1 0CFF1C90#0AC10C0000670213
(1680565951.484717) can1 1028FFF0#0000000000000000
(1680565951.485924) can1 19BBB701#0000000000000000
(1680565951.485925) can1 0C01C1A7#0500AF0000000000
(1680565951.487144) can1 0CFFA63D#00000000000000AF
(1680565951.487145) can1 00000301#0132000000000F42
(1680565951.488325) can1 0C30723D#0132000000000F42
(1680565951.489846) can1 18FAC603#0000000000000000
(1680565951.489847) can1 18FA9020#01AF000000000000
(1680565951.491066) can1 18FAC527#01FA000000000000
(1680565951.491067) can1 161088A2#2000140019003D00
(1680565951.512456) can1 1028FF00#00005045000088E8
(1680565951.512457) can1 1029FF00#000058000000F401
(1680565951.513612) can1 102AFF00#00006101605ED500
(1680565951.513614) can1 102BFF00#005045454400C800
(1680565951.524560) can1 18F00501#0804400000000000
(1680565951.534553) can1 18F00A01#0000000000000000
(1680565951.542612) can1 1028FF00#00005045000088E8
(1680565951.542613) can1 1029FF00#000059000000F401
(1680565951.543768) can1 102AFF00#00006101605ED600
(1680565951.543770) can1 102BFF00#005045454400C800
(1680565951.554144) can1 161088A1#01000000005A6400
(1680565951.555430) can1 161088A4#0000000576000200
(1680565951.555432) can1 161088A5#0000000000000000
(1680565951.556613) can1 161088A6#0000000000000005
(1680565951.556615) can1 161088A7#0000000000000000
(1680565951.557820) can1 161088AE#0000000000000000
(1680565951.557822) can1 18F00105#40E8030000000000
(1680565951.559638) can1 161088A8#000000000000001D
(1680565951.559640) can1 161088A9#3200000000000000
(1680565951.560847) can1 161088AA#0000320000000000
(1680565951.560848) can1 18A03D72#3200320000000E72
(1680565951.562013) can1 161088AB#0000000000000000
(1680565951.562015) can1 1026D3D2#0000000000000000
(1680565951.563145) can1 14006528#803E00E1F5050101
(1680565951.563146) can1 1610AAAA#0000000000000000
(1680565951.564300) can1 14036528#0000000000000000
(1680565951.564302) can1 1610AAAB#0000000000000000
(1680565951.565457) can1 14046528#000000003F000000
(1680565951.565458) can1 161088A3#F000F30015010901
(1680565951.566612) can1 161088AC#0000000000000901
(1680565951.566613) can1 1820A7C1#0000000000004928
(1680565951.567743) can1 161088AD#0000E80300000000
(1680565951.567744) can1 1821A7C1#00C3000000000000
(1680565951.568924) can1 1000E400#1F02000000000000
(1680565951.568925) can1 182FA7C1#7E11C13800000000
(1680565951.570066) can1 161088AF#0000000000000000
(1680565951.572769) can1 1028FF00#00005045000088E8
(1680565951.572770) can1 1029FF00#00005A000000F401
(1680565951.573924) can1 102AFF00#00006101605ED700
(1680565951.573926) can1 102BFF00#005045454400C800
(1680565951.584717) can1 0CFF1C90#0A410D00001C0213
(1680565951.599614) can1 1810A7B1#8813881388138813
(1680565951.599615) can1 1801A7B1#0000881310270800
(1680565951.600821) can1 1811A7B1#8813851388138713
(1680565951.600822) can1 1802A7B1#640450C39A8F0005
(1680565951.602041) can1 1812A7B1#8813881389138813
(1680565951.602042) can1 1813A7B1#8913881388138813
(1680565951.603171) can1 1028FF00#00005045000088E8
(1680565951.603172) can1 1029FF00#00005B000000F401
(1680565951.604326) can1 102AFF00#00006101605ED800
(1680565951.604328) can1 102BFF00#005045454400C800
(1680565951.605457) can1 1814A7B1#8813881389138813
(1680565951.605458) can1 1815A7B1#8913881388138813
(1680565951.606505) can1 1816A7B1#88138A1388138813
(1680565951.606506) can1 1817A7B1#8B1388138813FFFF
(1680565951.624561) can1 18F00501#0804400000000000
(1680565951.633067) can1 1028FF00#00005045000088E8
(1680565951.633068) can1 1029FF00#00005E000000F401
(1680565951.634223) can1 102AFF00#00006101605ED900
(1680565951.634224) can1 102BFF00#005045454400C800
(1680565951.635404) can1 18F00A01#0000000000000000
(1680565951.655145) can1 1028FFF0#0000000000000000
(1680565951.660692) can1 18A03D72#3200320000000F73
(1680565951.663014) can1 14006528#803E00E1F5050101
(1680565951.663016) can1 1028FF00#00005045000088E8
(1680565951.664171) can1 1029FF00#00005F000000F401
(1680565951.664172) can1 102AFF00#00006101605EDA00
(1680565951.665327) can1 102BFF00#005045454400C800
(1680565951.665328) can1 14036528#0000000000000000
(1680565951.666822) can1 14046528#000000003F000000
(1680565951.666823) can1 1820A7C1#0000000000004928
(1680565951.668015) can1 14016528#A702000100000000
(1680565951.668016) can1 1821A7C1#00C4000000000000
(1680565951.669144) can1 14026528#0100010001000000
(1680565951.669146) can1 182FA7C1#7E11C13800000000
(1680565951.684717) can1 0CFF1C90#0A410E0000940213
(1680565951.693379) can1 1028FF00#00005045000088E8
(1680565951.693380) can1 1029FF00#000061000000F401
(1680565951.694502) can1 102AFF00#00006101605EDB00
(1680565951.694503) can1 102BFF00#005045454400C800
(1680565951.723536) can1 1028FF00#00005045000088E8
(1680565951.723537) can1 1029FF00#000061000000F401
(1680565951.724692) can1 102AFF00#00006101605EDC00
(1680565951.724693) can1 102BFF00#005045454400C800
(1680565951.725871) can1 18F00501#0804400000000000
(1680565951.734552) can1 18F00A01#0000000000000000
(1680565951.749172) can1 1810A7B1#8813881388138813
(1680565951.750613) can1 1811A7B1#8813851388138713
(1680565951.750614) can1 1812A7B1#8813881389138813
(1680565951.752536) can1 1801A7B1#0000881310270800
(1680565951.752537) can1 1813A7B1#8913881388138813
(1680565951.753613) can1 1802A7B1#640450C39A8F0006
(1680565951.753615) can1 1028FF00#00005045000088E8
(1680565951.754770) can1 1029FF00#000063000000F501
(1680565951.754771) can1 102AFF00#00006101605EDD00
(1680565951.755925) can1 102BFF00#005045454400C800
(1680565951.755927) can1 1814A7B1#8813871389138813
(1680565951.757014) can1 1815A7B1#8813881388138913
(1680565951.757021) can1 1816A7B1#88138A1388138813
(1680565951.758093) can1 1817A7B1#8B1388138813FFFF
(1680565951.760822) can1 18A03D72#3000320000000062
(1680565951.762744) can1 14006528#803E00E1F5050101
(1680565951.762745) can1 14036528#0000000000000000
(1680565951.764146) can1 14046528#000000003F000000
(1680565951.764148) can1 1028FFF0#0000000000000000
(1680565951.765354) can1 19BBB701#0000000000000000
(1680565951.765355) can1 0C01C1A7#0500B00000000000
(1680565951.766552) can1 0CFFA63D#00000000000000B0
(1680565951.766553) can1 1820A7C1#0000000000004928
(1680565951.767718) can1 00000301#0132000000000033
(1680565951.767719) can1 1821A7C1#00C5000000000000
(1680565951.768871) can1 182FA7C1#7E11C13800000000
(1680565951.768872) can1 0C30723D#0132000000000033
(1680565951.770067) can1 18FAC603#0000000000000000
(1680565951.770069) can1 18FA9020#01AF000000000000
(1680565951.771250) can1 18FAC527#01FA000000000000
(1680565951.771251) can1 161088A2#2000140018003D00
(1680565951.772432) can1 161088A1#01000000005A6400
(1680565951.774119) can1 161088A4#0000000476000200
(1680565951.774121) can1 161088A5#0000000000000000
(1680565951.775328) can1 161088A6#0000000000000005
(1680565951.775330) can1 161088A7#0000000000000000
(1680565951.776536) can1 161088AE#0000000000000000
(1680565951.776537) can1 18F00105#40E8030000000000
(1680565951.777744) can1 161088A8#000000000000001D
(1680565951.779041) can1 161088A9#3200000000000000
(1680565951.779043) can1 161088AA#0000280000000000
(1680565951.780250) can1 161088AB#0000000000000000
(1680565951.780251) can1 1026D3D2#0000000000000000
(1680565951.781458) can1 1610AAAA#0000000000000000
(1680565951.781459) can1 1610AAAB#0000000000000000
(1680565951.783840) can1 1028FF00#00005045000088E8
(1680565951.783842) can1 1029FF00#000064000000F501
(1680565951.785015) can1 0CFF1C90#0AC10F0000EF0213
(1680565951.785016) can1 102AFF00#00006101605EDE00
(1680565951.786146) can1 102BFF00#005045454400C800
(1680565951.814019) can1 1028FF00#00005045000088E8
(1680565951.814021) can1 1029FF00#000066000000F501
(1680565951.815172) can1 102AFF00#00006101605EDF00
(1680565951.815173) can1 102BFF00#005045454400C800
(1680565951.824562) can1 18F00501#0804400000000000
(1680565951.834565) can1 18F00A01#0000000000000000
(1680565951.844146) can1 1028FF00#00005045000088E8
(1680565951.844147) can1 1029FF00#000067000000F401
(1680565951.845302) can1 102AFF00#00006101605EE000
(1680565951.845304) can1 102BFF00#005045454400C800
(1680565951.860799) can1 18A03D72#3200320000000165
(1680565951.862595) can1 14006528#803E00E1F5050101
(1680565951.862597) can1 14036528#0200000000000000
(1680565951.864042) can1 14046528#000000003F000000
(1680565951.867016) can1 182FA7C1#7E11C13800000000
(1680565951.867017) can1 1820A7C1#0000000000004928
(1680565951.868172) can1 1821A7C1#00C6000000000000
(1680565951.873901) can1 1028FFF0#0000000000000000
(1680565951.873903) can1 1028FF00#00005045000088E8
(1680565951.875069) can1 1029FF00#000068000000F401
(1680565951.875071) can1 102AFF00#00006101605EE100
(1680565951.876199) can1 102BFF00#005045454400C800
(1680565951.884721) can1 0CFF1C90#0AC3000000470213
(1680565951.899513) can1 1810A7B1#8813881388138813
(1680565951.899515) can1 1811A7B1#8813851388138713
(1680565951.901615) can1 1801A7B1#0000881310270800
(1680565951.901617) can1 1812A7B1#8813881389138813
(1680565951.902719) can1 1802A7B1#640450C39A8F0007
(1680565951.902720) can1 1813A7B1#8913881388138813
(1680565951.903823) can1 1814A7B1#8813881388138813
(1680565951.903824) can1 1028FF00#00005045000088E8
(1680565951.905069) can1 1029FF00#00006A000000F401
(1680565951.905070) can1 102AFF00#00006101605FE200
(1680565951.906225) can1 102BFF00#005045454400C800
(1680565951.906226) can1 1815A7B1#8813881388138913
(1680565951.907303) can1 1816A7B1#88138A1388138813
(1680565951.907304) can1 1817A7B1#8B1388138813FFFF
(1680565951.924563) can1 18F00501#0704400000000000
(1680565951.934579) can1 18F00A01#0000000000000000
(1680565951.934581) can1 1028FF00#00005045000088E8
(1680565951.935720) can1 1029FF00#00006B000000F401
(1680565951.935721) can1 102AFF00#00006101605EE300
(1680565951.936872) can1 102BFF00#005045454400C800
(1680565951.960799) can1 18A03D72#3200320000000266
(1680565951.962771) can1 14006528#803E00E1F5050101
(1680565951.962773) can1 14036528#0200000000000000
(1680565951.964017) can1 14046528#000000003F000000
(1680565951.964018) can1 1028FF00#00005045000088E8
(1680565951.965355) can1 1029FF00#00006C000000F401
(1680565951.965356) can1 102AFF00#00006101605EE400
(1680565951.966503) can1 102BFF00#005045454400C800
(1680565951.966505) can1 1820A7C1#0000000000004828
(1680565951.967668) can1 1821A7C1#00C7000000000000
(1680565951.967669) can1 182FA7C1#7E11C13800000000
(1680565951.983771) can1 1028FFF0#0000000000000000
(1680565951.983773) can1 19BBB701#0000000000000000
(1680565951.985017) can1 0CFF1C90#0A430100003C0213
(1680565951.985018) can1 0C01C1A7#0500B10000000000
(1680565951.986121) can1 0CFFA63D#00000000000000B1
(1680565951.986123) can1 00000301#0132000000000134
(1680565951.987331) can1 0C30723D#0132000000000134
(1680565951.988511) can1 18FAC603#0000000000000000
(1680565951.988512) can1 18FA9020#01AF000000000000
(1680565951.989719) can1 18FAC527#01FA000000000000
(1680565951.989721) can1 161088A2#1F00140019003C00
(1680565951.995017) can1 1028FF00#00005045000088E8
(1680565951.995018) can1 1029FF00#00006D000000F401
(1680565951.996095) can1 102AFF00#00006101605EE500
(1680565951.996097) can1 102BFF00#005045454400C800
(1680565952.024566) can1 18F00501#0804400000000000
(1680565952.024568) can1 1028FF00#00005045000088E8
(1680565952.025719) can1 1029FF00#00006F000000F401
(1680565952.025721) can1 102AFF00#00006101605EE600
(1680565952.026873) can1 102BFF00#005045454400C800
(1680565952.034566) can1 18F00A01#0000000000000000
(1680565952.048226) can1 1801A7B1#0000881310270800
(1680565952.049589) can1 1802A7B1#640450C39A8F0008
(1680565952.049591) can1 1810A7B1#8813881388138813
(1680565952.050668) can1 1811A7B1#8813851388138713
(1680565952.050669) can1 1812A7B1#8813881389138813
(1680565952.052174) can1 1813A7B1#8913881388138813
(1680565952.052176) can1 161088A1#01000000005A6400
(1680565952.053616) can1 1814A7B1#8813881388138813
(1680565952.053617) can1 161088A4#0000000576000200
(1680565952.054771) can1 161088A5#0000000000000000
(1680565952.054773) can1 1028FF00#00005045000088E8
(1680565952.055922) can1 1029FF00#000071000000F401
(1680565952.055923) can1 102AFF00#00006101605EE700
(1680565952.057069) can1 102BFF00#005045454400C800
(1680565952.057071) can1 161088A6#0000000000000005
(1680565952.058200) can1 1815A7B1#8913881388138913
(1680565952.058201) can1 161088A7#0200000000000000
(1680565952.059309) can1 1816A7B1#88138A1388138813
(1680565952.059310) can1 161088AE#0000000000000000
(1680565952.060434) can1 1817A7B1#8B1388138813FFFF
(1680565952.060436) can1 18A03D72#3200320000000367
(1680565952.061556) can1 18F00105#40E8030000000000
(1680565952.061557) can1 14006528#803E00E1F5050101
(1680565952.063017) can1 14036528#0000000000000000
(1680565952.063019) can1 161088A8#010000000000001D
(1680565952.064199) can1 14046528#000000003F000000
(1680565952.064201) can1 161088A9#3200000000000000
(1680565952.065381) can1 161088AA#0000320000000000
(1680565952.065383) can1 161088AB#0000000000000000
(1680565952.066556) can1 1026D3D2#0000000000000000
(1680565952.066558) can1 1820A7C1#0000000000004928
(1680565952.067719) can1 1821A7C1#00C8000000000000
(1680565952.067721) can1 1610AAAA#0000000000000000
(1680565952.068873) can1 182FA7C1#7E11C13800000000
(1680565952.068875) can1 1610AAAB#0000000000000000
(1680565952.070018) can1 161088A3#F000F20014010901
(1680565952.070019) can1 161088AC#0000000000000901
(1680565952.071200) can1 161088AD#0000E80300000000
(1680565952.071201) can1 1000E400#1F02000000000000
(1680565952.073303) can1 161088AF#0000000000000000
(1680565952.084719) can1 0CFF1C90#0A43020000B40213
(1680565952.084721) can1 1028FF00#00005045000088E8
(1680565952.086018) can1 1029FF00#000071000000F401
(1680565952.086019) can1 102AFF00#00006101605EE800
(1680565952.087148) can1 102BFF00#005045454400C800
(1680565952.115567) can1 1028FF00#00005045000088E8
(1680565952.115569) can1 1029FF00#000073000000F401
(1680565952.116719) can1 102AFF00#00006101605EE900
(1680565952.116720) can1 102BFF00#005045454400C800
(1680565952.124567) can1 18F00501#0804400000000000
(1680565952.134567) can1 18F00A01#0000000000000000
(1680565952.145723) can1 1028FF00#00005045000088E8
(1680565952.145725) can1 1029FF00#000074000000F401
(1680565952.146874) can1 102AFF00#00006101605EEA00
(1680565952.146875) can1 102BFF00#005045454400C800
(1680565952.153772) can1 1028FFF0#0000000000000000
(1680565952.160814) can1 18A03D72#3000320000000466
(1680565952.160815) can1 18F8A7B1#0001010201210000
(1680565952.162385) can1 14006528#803E00E1F5050101
(1680565952.162385) can1 14036528#0000000000000000
(1680565952.163878) can1 14046528#000000003F000000
(1680565952.163879) can1 14016528#A702000100000000
(1680565952.165244) can1 14026528#0100010001000000
(1680565952.166904) can1 182FA7C1#7E11C13800000000
(1680565952.166905) can1 1820A7C1#0000000000004928
(1680565952.168046) can1 1821A7C1#00C9000000000000
(1680565952.175852) can1 1028FF00#00005045000088E8
(1680565952.175853) can1 1029FF00#000076000000F401
(1680565952.176994) can1 102AFF00#00006101605EEB00
(1680565952.176995) can1 102BFF00#005045454400C800
(1680565952.184670) can1 0CFF1C90#0AC3030000CF0213
(1680565952.184671) can1 18FEA3B2#047C00CF0B000041
(1680565952.199158) can1 1810A7B1#8813881388138813
(1680565952.200625) can1 1811A7B1#8813851388138713
(1680565952.200626) can1 1812A7B1#8813881389138813
(1680565952.202536) can1 1801A7B1#0000881310270800
(1680565952.202537) can1 1813A7B1#8913881388138813
(1680565952.203624) can1 1802A7B1#640450C39A8F0009
(1680565952.203626) can1 1814A7B1#8813881388138813
(1680565952.205472) can1 1815A7B1#8913881388138813
(1680565952.205472) can1 1028FF00#00005045000088E8
(1680565952.206624) can1 1029FF00#000077000000F401
(1680565952.206625) can1 102AFF00#00006101605EEC00
(1680565952.207781) can1 102BFF00#005045454400C800
(1680565952.207782) can1 1816A7B1#88138A1388138813
(1680565952.208860) can1 1817A7B1#8B1388138813FFFF
(1680565952.224547) can1 18F00501#0804400000000000
(1680565952.234548) can1 18F00A01#0000000000000000
(1680565952.236158) can1 1028FF00#00005045000088E8
(1680565952.236159) can1 1029FF00#000078000000F401
(1680565952.237314) can1 102AFF00#00006101605EED00
(1680565952.237315) can1 102BFF00#005045454400C800
(1680565952.260851) can1 18A03D72#3200320000000569
(1680565952.261936) can1 14006528#803E00E1F5050101
(1680565952.261937) can1 14036528#0000000000000000
(1680565952.263175) can1 1028FFF0#0000000000000000
(1680565952.263177) can1 14046528#000000003F000000
(1680565952.264357) can1 19BBB701#0000000000000000
(1680565952.264359) can1 0C01C1A7#0500B20000000000
(1680565952.265557) can1 0CFFA63D#00000000000000B2
(1680565952.265559) can1 00000301#0132000000000235
(1680565952.266722) can1 1028FF00#00005045000088E8
(1680565952.266723) can1 1029FF00#00007A000000F401
(1680565952.267875) can1 0C30723D#0132000000000235
(1680565952.267876) can1 102AFF00#00006101605EEE00
(1680565952.269046) can1 102BFF00#005045454400C800
(1680565952.269047) can1 1820A7C1#0000000000004928
(1680565952.270202) can1 1821A7C1#00CA000000000000
(1680565952.270203) can1 182FA7C1#7E11C13800000000
(1680565952.271358) can1 18FAC603#0000000000000000
(1680565952.272773) can1 18FA9020#01AF000000000000
(1680565952.272775) can1 18FAC527#01FA000000000000
(1680565952.274019) can1 161088A2#2000140019003D00
(1680565952.274021) can1 161088A1#01000000005A6400
(1680565952.275149) can1 161088A4#0000000576000200
(1680565952.275150) can1 161088A5#0000000000000000
(1680565952.276331) can1 161088A6#0000000000000005
(1680565952.277669) can1 161088A7#0000000000000000
(1680565952.277671) can1 161088AE#0000000000000000
(1680565952.278874) can1 18F00105#40E8030000000000
(1680565952.278876) can1 161088A8#010000000000001D
(1680565952.280063) can1 161088A9#3200000000000000
(1680565952.280065) can1 161088AA#0000320000000000
(1680565952.281283) can1 161088AB#0000000000000000
(1680565952.282721) can1 1026D3D2#0000000000000000
(1680565952.282722) can1 1610AAAA#0000000000000000
(1680565952.283929) can1 1610AAAB#0000000000000000
(1680565952.283930) can1 0CFF1C90#0A42040000A40213
(1680565952.296487) can1 1028FF00#00005045000088E8
(1680565952.296489) can1 1029FF00#00007B000000F401
(1680565952.297643) can1 102AFF00#00006101605EEF00
(1680565952.297644) can1 102BFF00#005045454400C800
(1680565952.324568) can1 18F00501#0804400000000000
(1680565952.326646) can1 1028FF00#00005045000088E8
(1680565952.326648) can1 1029FF00#00007D000000F401
(1680565952.327799) can1 102AFF00#00006101605EF000
(1680565952.327801) can1 102BFF00#005045454400C800
(1680565952.334577) can1 18F00A01#0000000000000000
(1680565952.349514) can1 1810A7B1#8813881388138813
(1680565952.349516) can1 1811A7B1#8813851388138713
(1680565952.351618) can1 1801A7B1#0000881310270800
(1680565952.351619) can1 1812A7B1#8813881389138813
(1680565952.352719) can1 1802A7B1#640450C39A8F000A
(1680565952.352726) can1 1813A7B1#8913881388138813
(1680565952.353826) can1 1814A7B1#8813871389138813
(1680565952.354852) can1 1815A7B1#8913881388138813
(1680565952.354853) can1 1816A7B1#88138A1388138813
(1680565952.356228) can1 1817A7B1#8B1388138813FFFF
(1680565952.356229) can1 1028FF00#00005045000088E8
(1680565952.357410) can1 1029FF00#00007E000000F501
(1680565952.357412) can1 102AFF00#00006101605EF100
(1680565952.358578) can1 102BFF00#005045454400C800
(1680565952.360851) can1 18A03D72#320032000000066A
(1680565952.361936) can1 14006528#803E00E1F5050101
(1680565952.361938) can1 14036528#0000000000000000
(1680565952.363462) can1 14046528#000000003F000000
(1680565952.366828) can1 182FA7C1#7E11C13800000000
(1680565952.366828) can1 1820A7C1#0000000000004928
(1680565952.367995) can1 1821A7C1#00CB000000000000
(1680565952.372490) can1 1028FFF0#0000000000000000
(1680565952.384672) can1 0CFF1C90#0AC2050000DF0213
(1680565952.387020) can1 1028FF00#00005045000088E8
(1680565952.387021) can1 1029FF00#00007F000000F501
(1680565952.388095) can1 102AFF00#00006101605EF200
(1680565952.388096) can1 102BFF00#005045454400C800
(1680565952.417125) can1 1028FF00#00005045000088E8
(1680565952.417126) can1 1029FF00#000080000000F501
(1680565952.418280) can1 102AFF00#00006101605EF300
(1680565952.418281) can1 102BFF00#005045454400C800
(1680565952.424566) can1 18F00501#0804400000000000
(1680565952.434521) can1 18F00A01#0000000000000000
(1680565952.447281) can1 1028FF00#00005045000088E8
(1680565952.447282) can1 1029FF00#000082000000F501
(1680565952.448463) can1 102AFF00#00006101605EF400
(1680565952.448464) can1 102BFF00#005045454400C800
(1680565952.460852) can1 18A03D72#320032000000076B
(1680565952.460854) can1 14006528#803E00E1F5050101
(1680565952.462229) can1 14036528#0000000000000000
(1680565952.462230) can1 14046528#000000003F000000
(1680565952.466827) can1 182FA7C1#7E11C13800000000
(1680565952.466828) can1 1820A7C1#0000000000004928
(1680565952.468044) can1 1821A7C1#00CC000000000000
(1680565952.477387) can1 1028FF00#00005045000088E8
(1680565952.477387) can1 1029FF00#000083000000F401
(1680565952.478536) can1 102AFF00#00006101605EF500
(1680565952.478538) can1 102BFF00#005045454400C800
(1680565952.482384) can1 1028FFF0#0000000000000000
(1680565952.482386) can1 19BBB701#0000000000000000
(1680565952.483593) can1 0C01C1A7#0500B30000000000
(1680565952.483594) can1 0CFFA63D#00000000000000B3
(1680565952.484748) can1 0CFF1C90#0AC2060000570213
(1680565952.484750) can1 00000301#0132000000000336
(1680565952.485902) can1 0C30723D#0132000000000336
(1680565952.487125) can1 18FAC603#0000000000000000
(1680565952.487127) can1 18FA9020#01AF000000000000
(1680565952.488332) can1 18FAC527#01FA000000000000
(1680565952.488333) can1 161088A2#2000150019003C00
(1680565952.498203) can1 1801A7B1#0000881310270800
(1680565952.499593) can1 1802A7B1#640450C39A8F000B
(1680565952.499594) can1 1810A7B1#8813881388138813
(1680565952.500697) can1 1811A7B1#8813851388138713
(1680565952.500698) can1 1812A7B1#8813881389138813
(1680565952.502618) can1 1813A7B1#8913881388138813
(1680565952.502620) can1 1814A7B1#8813881389138813
(1680565952.505333) can1 1815A7B1#8913881388138813
(1680565952.506619) can1 1816A7B1#88138A1388138813
(1680565952.506620) can1 1817A7B1#8B1388138813FFFF
(1680565952.507876) can1 1028FF00#00005045000088E8
(1680565952.507877) can1 1029FF00#000084000000F401
(1680565952.509047) can1 102AFF00#00006101605EF600
(1680565952.509049) can1 102BFF00#005045454400C800
(1680565952.524568) can1 18F00501#0804400000000000
(1680565952.534593) can1 18F00A01#0000000000000000
(1680565952.537749) can1 1028FF00#00005045000088E8
(1680565952.537751) can1 1029FF00#000085000000F401
(1680565952.538903) can1 102AFF00#00006101605EF700
(1680565952.538905) can1 102BFF00#005045454400C800
(1680565952.551385) can1 161088A1#01000000005A6400
(1680565952.552697) can1 161088A4#0000000576000200
(1680565952.552699) can1 161088A5#0000000000000000
(1680565952.553877) can1 161088A6#0000000000000005
(1680565952.553878) can1 161088A7#0000000000000000
(1680565952.555099) can1 161088AE#0000000000000000
(1680565952.555100) can1 18F00105#40E8030000000000
(1680565952.556877) can1 161088A8#010000000000001D
(1680565952.556878) can1 161088A9#3200000000000000
(1680565952.558073) can1 161088AA#0000320000000000
(1680565952.558075) can1 161088AB#0000000000000000
(1680565952.559280) can1 1026D3D2#0000000000000000
(1680565952.559282) can1 1610AAAA#0000000000000000
(1680565952.560489) can1 1610AAAB#0000000000000000
(1680565952.560491) can1 18A03D72#320032000000086C
(1680565952.561619) can1 14006528#803E00E1F5050101
(1680565952.561621) can1 161088A3#F000F20015010901
(1680565952.562749) can1 14036528#0200000000000000
(1680565952.562750) can1 161088AC#0000000000000901
(1680565952.563903) can1 14046528#000000003F000000
(1680565952.563905) can1 161088AD#0000E80300000000
(1680565952.565074) can1 1000E400#1F02000000000000
(1680565952.565075) can1 161088AF#0000000000000000
(1680565952.566801) can1 182FA7C1#7E11C13800000000
(1680565952.566803) can1 1820A7C1#0000000000004928
(1680565952.568020) can1 1028FF00#00005045000088E8
(1680565952.568022) can1 1029FF00#000086000000F401
(1680565952.569125) can1 102AFF00#00006101605EF800
(1680565952.569127) can1 102BFF00#005045454400C800
(1680565952.570297) can1 1821A7C1#00CD000000000000
(1680565952.584674) can1 0CFF1C90#0A420700002C0213
(1680565952.598024) can1 1028FF00#00005045000088E8
(1680565952.598025) can1 1029FF00#000088000000F401
(1680565952.599204) can1 102AFF00#00006101605EF900
(1680565952.599206) can1 102BFF00#005045454400C800
(1680565952.624570) can1 18F00501#0804400000000000
(1680565952.628204) can1 1028FF00#00005045000088E8
(1680565952.628205) can1 1029FF00#000089000000F401
(1680565952.629359) can1 102AFF00#00006101605EFA00
(1680565952.629361) can1 102BFF00#005045454400C800
(1680565952.634583) can1 18F00A01#0000000000000000
(1680565952.649177) can1 1810A7B1#8813881388138813
(1680565952.650620) can1 1811A7B1#8813851388138713
(1680565952.650621) can1 1801A7B1#0000881310270800
(1680565952.651802) can1 1812A7B1#8813881389138813
(1680565952.651803) can1 1028FFF0#0000000000000000
(1680565952.653021) can1 1802A7B1#640450C39A8F000C
(1680565952.653023) can1 1813A7B1#8913881388138813
(1680565952.654021) can1 1814A7B1#8813881389138813
(1680565952.655437) can1 1815A7B1#8913881388138813
(1680565952.656542) can1 1816A7B1#88138A1388138813
(1680565952.656544) can1 1817A7B1#8B1388138813FFFF
(1680565952.658359) can1 1028FF00#00005045000088E8
(1680565952.658361) can1 1029FF00#00008A000000F401
(1680565952.659516) can1 102AFF00#00006101605EFB00
(1680565952.659517) can1 102BFF00#005045454400C800
(1680565952.660885) can1 18A03D72#320032000000096D
(1680565952.660886) can1 14006528#803E00E1F5050101
(1680565952.662091) can1 14036528#0200000000000000
(1680565952.662093) can1 14046528#000000003F000000
(1680565952.663307) can1 14016528#A702000100000000
(1680565952.663309) can1 14026528#0100010001000000
(1680565952.666777) can1 182FA7C1#7E11C13800000000
(1680565952.666778) can1 1820A7C1#0000000000004928
(1680565952.667931) can1 1821A7C1#00CE000000000000
(1680565952.684698) can1 0CFF1C90#0A40080000840213
(1680565952.688518) can1 1028FF00#00005045000088E8
(1680565952.688520) can1 1029FF00#00008B000000F401
(1680565952.689672) can1 102AFF00#00006101605EFC00
(1680565952.689674) can1 102BFF00#005045454400C800
(1680565952.718649) can1 1028FF00#00005045000088E8
(1680565952.718651) can1 1029FF00#00008E000000F401
(1680565952.719828) can1 102AFF00#00006101605EFD00
(1680565952.719829) can1 102BFF00#005045454400C800
(1680565952.724568) can1 18F00501#0804400000000000
(1680565952.734595) can1 18F00A01#0000000000000000
(1680565952.748803) can1 1028FF00#00005045000088E8
(1680565952.748804) can1 1029FF00#00008E000000F401
(1680565952.750022) can1 102AFF00#00006101605EFE00
(1680565952.750024) can1 102BFF00#005045454400C800
(1680565952.760855) can1 18A03D72#3200320000000A6E
(1680565952.760856) can1 14006528#803E00E1F5050101
(1680565952.762021) can1 1028FFF0#0000000000000000
(1680565952.762023) can1 14036528#0000000000000000
(1680565952.763181) can1 19BBB701#0000000000000000
(1680565952.763183) can1 14046528#000000003F000000
(1680565952.764335) can1 0C01C1A7#0500B40000000000
(1680565952.764336) can1 0CFFA63D#00000000000000B4
(1680565952.766309) can1 00000301#0132000000000437
(1680565952.766310) can1 1820A7C1#0000000000004928
(1680565952.767438) can1 0C30723D#0132000000000437
(1680565952.767440) can1 1821A7C1#00CF000000000000
(1680565952.768595) can1 182FA7C1#7E11C13800000000
(1680565952.768596) can1 18FAC603#0000000000000000
(1680565952.769791) can1 18FA9020#01AF000000000000
(1680565952.771387) can1 18FAC527#01FA000000000000
(1680565952.771388) can1 161088A2#2000150019003C00
(1680565952.772542) can1 161088A1#01000000005A6400
(1680565952.772544) can1 161088A4#0000000576000200
(1680565952.773750) can1 161088A5#0000000000000000
(1680565952.773752) can1 161088A6#0000000000000005
(1680565952.775022) can1 161088A7#0200000000000000
(1680565952.776256) can1 161088AE#0000000000000000
(1680565952.776258) can1 18F00105#40E8030000000000
(1680565952.777465) can1 161088A8#010000000000001D
(1680565952.777466) can1 161088A9#3200000000000000
(1680565952.778673) can1 161088AA#0000320000000000
(1680565952.778675) can1 1028FF00#00005045000088E8
(1680565952.779828) can1 1029FF00#000091000000F401
(1680565952.779830) can1 102AFF00#00006101605EFF00
(1680565952.781022) can1 102BFF00#005045454400C800
(1680565952.781023) can1 161088AB#0000000000000000
(1680565952.782152) can1 1026D3D2#0000000000000000
(1680565952.782154) can1 1610AAAA#0000000000000000
(1680565952.783361) can1 1610AAAB#0000000000000000
(1680565952.784699) can1 0CFF1C90#0AC0090000FF0213
(1680565952.798257) can1 1801A7B1#0000881310270800
(1680565952.799490) can1 1802A7B1#640450C39A8F000D
(1680565952.799492) can1 1810A7B1#8813881388138813
(1680565952.800595) can1 1811A7B1#8813851388138713
(1680565952.801621) can1 1812A7B1#8813881389138813
(1680565952.801622) can1 1813A7B1#8913881388138813
(1680565952.803516) can1 1814A7B1#8813871388138813
(1680565952.804828) can1 1815A7B1#8913881388138813
(1680565952.804830) can1 1816A7B1#88138A1388138813
(1680565952.806257) can1 1817A7B1#8B1388138813FFFF
(1680565952.809127) can1 1028FF00#00005045000088E8
(1680565952.809128) can1 1029FF00#000092000000F401
(1680565952.810283) can1 102AFF00#00006101605E0000
(1680565952.810284) can1 102BFF00#005045454400C800
(1680565952.824569) can1 18F00501#0804400000000000
(1680565952.834572) can1 18F00A01#0000000000000000
(1680565952.839284) can1 1028FF00#00005045000088E8
(1680565952.839285) can1 1029FF00#000093000000F401
(1680565952.840439) can1 102AFF00#00006101605E0100
(1680565952.840441) can1 102BFF00#005045454400C800
(1680565952.860855) can1 18A03D72#3200320000000B6F
(1680565952.860856) can1 14006528#803E00E1F5050101
(1680565952.862309) can1 14036528#0000000000000000
(1680565952.862311) can1 14046528#000000003F000000
(1680565952.866725) can1 182FA7C1#7E11C13800000000
(1680565952.866727) can1 1820A7C1#0000000000004928
(1680565952.867879) can1 1821A7C1#00D0000000000000
(1680565952.869439) can1 1028FF00#00005045000088E8
(1680565952.869441) can1 1029FF00#000094000000F401
(1680565952.870579) can1 102AFF00#00006101605E0200
(1680565952.870581) can1 1028FFF0#0000000000000000
(1680565952.871751) can1 102BFF00#005045454400C800
(1680565952.884649) can1 0CFF1C90#0AC00A0000770213
(1680565952.899209) can1 1028FF00#00005045000088E8
(1680565952.899209) can1 1029FF00#000096000000F401
(1680565952.900387) can1 102AFF00#00006101605E0300
(1680565952.900389) can1 102BFF00#005045454400C800
(1680565952.924570) can1 18F00501#0804400000000000
(1680565952.929625) can1 1028FF00#00005045000088E8
(1680565952.929627) can1 1029FF00#000097000000F401
(1680565952.930777) can1 102AFF00#00006101605E0400
(1680565952.930779) can1 102BFF00#005045454400C800
(1680565952.934597) can1 18F00A01#0000000000000000
(1680565952.949232) can1 1810A7B1#8813881388138813
(1680565952.950502) can1 1811A7B1#8813851388138713
(1680565952.950503) can1 1801A7B1#0000881310270800
(1680565952.951751) can1 1812A7B1#8813881389138813
(1680565952.951753) can1 1802A7B1#640450C39A8F000E
(1680565952.953153) can1 1813A7B1#8913881388138813
(1680565952.953155) can1 1814A7B1#8813871389138813
(1680565952.955284) can1 1815A7B1#8913881388138813
(1680565952.956622) can1 1816A7B1#88138A1388138813
(1680565952.956624) can1 1817A7B1#8B1388138813FFFF
(1680565952.959906) can1 1028FF00#00005045000088E8
(1680565952.959907) can1 1029FF00#000098000000F401
(1680565952.961076) can1 102AFF00#00006101605E0500
(1680565952.961078) can1 102BFF00#005045454400C800
(1680565952.962205) can1 14006528#803E00E1F5050101
(1680565952.962207) can1 18A03D72#3200320000000C70
(1680565952.963336) can1 14036528#0000000000000000
(1680565952.963338) can1 14046528#000000003F000000
(1680565952.966674) can1 182FA7C1#7E11C13800000000
(1680565952.966675) can1 1820A7C1#0000000000004928
(1680565952.967830) can1 1821A7C1#00D1000000000000
(1680565952.980999) can1 1028FFF0#0000000000000000
(1680565952.981000) can1 19BBB701#0000000000000000
(1680565952.982182) can1 0C01C1A7#0500B50000000000
(1680565952.982182) can1 0CFFA63D#00000000000000B5
(1680565952.983390) can1 00000301#0132000000000538
(1680565952.983391) can1 0C30723D#0132000000000538
(1680565952.984676) can1 0CFF1C90#0A400B00000C0213
(1680565952.985702) can1 18FAC603#0000000000000000
(1680565952.985702) can1 18FA9020#01AF000000000000
(1680565952.986884) can1 18FAC527#01FA000000000000
(1680565952.986884) can1 161088A2#2000140019003D00
(1680565952.990026) can1 1028FF00#00005045000088E8
(1680565952.990027) can1 1029FF00#000099000000F501
(1680565952.991182) can1 102AFF00#00006101605E0600
(1680565952.991183) can1 102BFF00#005045454400C800
(1680565953.020183) can1 1028FF00#00005045000088E8
(1680565953.020184) can1 1029FF00#00009A000000F501
(1680565953.021363) can1 102AFF00#00006101605E0700
(1680565953.021364) can1 102BFF00#005045454400C800
(1680565953.024570) can1 18F00501#0804400000000000
(1680565953.034602) can1 18F00A01#0000000000000000
(1680565953.050024) can1 161088A1#01000000005A6400
(1680565953.050026) can1 1028FF00#00005045000088E8
(1680565953.051154) can1 1029FF00#00009C000000F501
(1680565953.051156) can1 102AFF00#00006101605E0800
(1680565953.052311) can1 102BFF00#005045454400C800
(1680565953.052312) can1 161088A4#0000000576000200
(1680565953.053492) can1 161088A5#0000000000000000
(1680565953.053494) can1 161088A6#0000000000000005
(1680565953.055493) can1 161088A7#0000000000000000
(1680565953.055494) can1 161088AE#0000000000000000
(1680565953.056675) can1 18F00105#40E8030000000000
(1680565953.056676) can1 161088A8#010000000000001D
(1680565953.057881) can1 161088A9#3200000000000000
(1680565953.057882) can1 161088AA#0000320000000000
(1680565953.059077) can1 161088AB#0000000000000000
(1680565953.060570) can1 1026D3D2#0000000000000000
(1680565953.060572) can1 14006528#803E00E1F5050101
(1680565953.061701) can1 1610AAAA#0000000000000000
(1680565953.061702) can1 14036528#0000000000000000
(1680565953.062840) can1 1610AAAB#0000000000000000
(1680565953.062842) can1 14046528#000000003F000000
(1680565953.064026) can1 161088A3#F000F20015010901
(1680565953.064028) can1 18A03D72#3200320000000D71
(1680565953.065492) can1 161088AC#0000000000000901
(1680565953.065494) can1 161088AD#0000E80300000000
(1680565953.066649) can1 182FA7C1#7E11C13800000000
(1680565953.066650) can1 1000E400#1F02000000000000
(1680565953.067822) can1 1820A7C1#0000000000004928
(1680565953.067823) can1 161088AF#0000000000000000
(1680565953.069025) can1 1821A7C1#00D2000000000000
(1680565953.080545) can1 1028FF00#00005045000088E8
(1680565953.080546) can1 1029FF00#00009D000000F401
(1680565953.081701) can1 102AFF00#00006101605E0900
(1680565953.081703) can1 102BFF00#005045454400C800
(1680565953.084651) can1 0CFF1C90#0AC10C0000670213
(1680565953.098548) can1 1801A7B1#0000881310270800
(1680565953.098550) can1 1802A7B1#640450C39A8F000F
(1680565953.099701) can1 1810A7B1#8813881388138813
(1680565953.099702) can1 1811A7B1#8813851388138713
(1680565953.101232) can1 1812A7B1#8813881389138813
(1680565953.102501) can1 1813A7B1#8913881388138813
(1680565953.102503) can1 1814A7B1#8813871389138813
(1680565953.105467) can1 1815A7B1#8913881388138813
(1680565953.106536) can1 1816A7B1#88138A1388138813
(1680565953.106538) can1 1817A7B1#8B1388138813FFFF
(1680565953.110701) can1 1028FF00#00005045000088E8
(1680565953.110703) can1 1029FF00#00009E000000F401
(1680565953.111857) can1 102AFF00#00006101605E0A00
(1680565953.111859) can1 102BFF00#005045454400C800
(1680565953.124571) can1 18F00501#0804400000000000
(1680565953.134597) can1 18F00A01#0000000000000000
(1680565953.140805) can1 1028FF00#00005045000088E8
(1680565953.140807) can1 1029FF00#0000A0000000F401
(1680565953.142024) can1 102AFF00#00006101605E0B00
(1680565953.142026) can1 102BFF00#005045454400C800
(1680565953.151026) can1 1028FFF0#0000000000000000
(1680565953.160470) can1 14016528#A702000100000000
(1680565953.160472) can1 18A03D72#3200320000000E72
(1680565953.161597) can1 14026528#0100010001000000
(1680565953.161599) can1 18F8A7B1#0001010201210000
(1680565953.162720) can1 14006528#803E00E1F5050101
(1680565953.162722) can1 14036528#0000000000000000
(1680565953.164104) can1 14046528#000000003F000000
(1680565953.166623) can1 182FA7C1#7E11C13800000000
(1680565953.166625) can1 1820A7C1#0000000000004928
(1680565953.167779) can1 1821A7C1#00D3000000000000
(1680565953.171025) can1 1028FF00#00005045000088E8
(1680565953.171027) can1 1029FF00#0000A1000000F401
(1680565953.172129) can1 102AFF00#00006101605E0C00
(1680565953.172130) can1 102BFF00#005045454400C800
(1680565953.184676) can1 0CFF1C90#0A410D00001C0213
(1680565953.198210) can1 18FEA3B2#047C00CF0B000042
(1680565953.201106) can1 1028FF00#00005045000088E8
(1680565953.201107) can1 1029FF00#0000A2000000F401
(1680565953.202261) can1 102AFF00#00006101605E0D00
(1680565953.202262) can1 102BFF00#005045454400C800
(1680565953.224548) can1 18F00501#0704400000000000
(1680565953.231312) can1 1028FF00#00005045000088E8
(1680565953.231314) can1 1029FF00#0000A4000000F401
(1680565953.232468) can1 102AFF00#00006101605E0E00
(1680565953.232469) can1 102BFF00#005045454400C800
(1680565953.234530) can1 18F00A01#0000000000000000
(1680565953.249524) can1 1810A7B1#8813881388138813
(1680565953.249526) can1 1811A7B1#8813851388138713
(1680565953.251585) can1 1812A7B1#8813881389138813
(1680565953.251587) can1 1801A7B1#0000881310270800
(1680565953.252807) can1 1813A7B1#8913881388138813
(1680565953.252808) can1 1802A7B1#640450C39A8F0010
(1680565953.253834) can1 1814A7B1#8813871388138813
(1680565953.254882) can1 1815A7B1#8913881388138813
(1680565953.254883) can1 1816A7B1#88138A1388138813
(1680565953.256260) can1 1817A7B1#8B1388138813FFFF
(1680565953.260181) can1 1028FFF0#0000000000000000
(1680565953.260183) can1 14006528#803E00E1F5050101
(1680565953.261312) can1 18A03D72#3000320000000F71
(1680565953.261314) can1 1028FF00#00005045000088E8
(1680565953.262457) can1 1029FF00#0000A5000000F401
(1680565953.262458) can1 102AFF00#00006101605E0F00
(1680565953.263623) can1 102BFF00#005045454400C800
(1680565953.263625) can1 14036528#0000000000000000
(1680565953.264785) can1 19BBB701#0000000000000000
(1680565953.264786) can1 14046528#000000003F000000
(1680565953.265914) can1 0C01C1A7#0500B60000000000
(1680565953.265916) can1 0CFFA63D#00000000000000B6
(1680565953.267104) can1 1820A7C1#0000000000004928
(1680565953.267106) can1 00000301#0132000000000639
(1680565953.268260) can1 1821A7C1#00D4000000000000
(1680565953.268262) can1 0C30723D#0132000000000639
(1680565953.269416) can1 182FA7C1#7E11C13800000000
(1680565953.269418) can1 18FAC603#0000000000000000
(1680565953.270598) can1 18FA9020#01AF000000000000
(1680565953.270599) can1 18FAC527#01FA000000000000
(1680565953.271806) can1 161088A2#1F00140019003C00
(1680565953.271808) can1 161088A1#01000000005A6400
(1680565953.273025) can1 161088A4#0000000576000200
(1680565953.273026) can1 161088A5#0000000000000000
(1680565953.274858) can1 161088A6#0000000000000005
(1680565953.274859) can1 161088A7#0000000000000000
(1680565953.276078) can1 161088AE#0000000000000000
(1680565953.276079) can1 18F00105#40E8030000000000
(1680565953.277269) can1 161088A8#010000000000001D
(1680565953.277271) can1 161088A9#3200000000000000
(1680565953.278527) can1 161088AA#0000320000000000
(1680565953.279936) can1 161088AB#0000000000000000
(1680565953.279938) can1 1026D3D2#0000000000000000
(1680565953.281130) can1 1610AAAA#0000000000000000
(1680565953.281132) can1 1610AAAB#0000000000000000
(1680565953.284675) can1 0CFF1C90#0A410E0000940213
(1680565953.291598) can1 1028FF00#00005045000088E8
(1680565953.291600) can1 1029FF00#0000A6000000F401
(1680565953.292754) can1 102AFF00#00006101605E1000
(1680565953.292755) can1 102BFF00#005045454400C800
(1680565953.321757) can1 1028FF00#00005045000088E8
(1680565953.321758) can1 1029FF00#0000A7000000F401
(1680565953.322908) can1 102AFF00#00006101605E1100
(1680565953.322910) can1 102BFF00#005045454400C800
(1680565953.324572) can1 18F00501#0804400000000000
(1680565953.334598) can1 18F00A01#0000000000000000
(1680565953.351911) can1 1028FF00#00005045000088E8
(1680565953.351913) can1 1029FF00#0000A9000000F301
(1680565953.353079) can1 102AFF00#00006101605E1200
(1680565953.353080) can1 102BFF00#005045454400C800
(1680565953.360157) can1 14006528#803E00E1F5050101
(1680565953.360158) can1 14036528#0200000000000000
(1680565953.361339) can1 18A03D72#3200320000000064
(1680565953.361340) can1 14046528#000000003F000000
(1680565953.366582) can1 182FA7C1#7E11C13800000000
(1680565953.366583) can1 1820A7C1#0000000000004928
(1680565953.367729) can1 1821A7C1#00D5000000000000
(1680565953.369702) can1 1028FFF0#0000000000000000
(1680565953.382079) can1 1028FF00#00005045000088E8
(1680565953.382080) can1 1029FF00#0000AA000000F401
(1680565953.383235) can1 102AFF00#00006101605E1300
(1680565953.383237) can1 102BFF00#005045454400C800
(1680565953.384651) can1 0CFF1C90#0AC10F0000EF0213
(1680565953.399236) can1 1801A7B1#0000881310270800
(1680565953.399238) can1 1810A7B1#8813881388138813
(1680565953.400546) can1 1802A7B1#640450C39A8F0011
(1680565953.400548) can1 1811A7B1#8813851388138713
(1680565953.401600) can1 1812A7B1#8813881389138813
(1680565953.401601) can1 1813A7B1#8913881388138813
(1680565953.403261) can1 1814A7B1#8813881388138813
(1680565953.405286) can1 1815A7B1#8913881388138813
(1680565953.406677) can1 1816A7B1#88138A1388138813
(1680565953.406678) can1 1817A7B1#8B1388138813FFFF
(1680565953.412235) can1 1028FF00#00005045000088E8
(1680565953.412236) can1 1029FF00#0000AB000000F401
(1680565953.413365) can1 102AFF00#00006101605E1400
